(1681172698.128904) can0 61A#0000000000000000
(1681172698.139737) can0 5F0#007B098A098A0414
(1681172698.147073) can0 5F1#00BB030983830101
(1681172698.147339) can0 5F2#03E8010604620581
(1681172698.147551) can0 5F3#0000007C00A30000
(1681172698.190083) can0 5F0#007B098A098A040F
(1681172698.197755) can0 5F1#00BB030984840101
(1681172698.198027) can0 5F2#03E8010604620581
(1681172698.198234) can0 5F3#0000007C00A50000
(1681172698.228872) can0 61A#0000000000000000
(1681172698.240232) can0 5F0#007B098D098D040F
(1681172698.247935) can0 5F1#00BC030984840101
(1681172698.248202) can0 5F2#03E8010604620581
(1681172698.248413) can0 5F3#0000007C00A40000
(1681172698.290435) can0 5F0#007B098D098D0411
(1681172698.298108) can0 5F1#00BB030983830101
(1681172698.298374) can0 5F2#03E8010604620581
(1681172698.298581) can0 5F3#0000007D00A30000
(1681172698.328998) can0 61A#0000000000000000
(1681172698.341287) can0 5F0#007C097609760410
(1681172698.348442) can0 5F1#00BB030983830101
(1681172698.348706) can0 5F2#03E8010604620583
(1681172698.348950) can0 5F3#0000007D00A30000
(1681172698.391731) can0 5F0#007C097609760415
(1681172698.398605) can0 5F1#00BB030984840101
(1681172698.398858) can0 5F2#03E8010604620583
(1681172698.399096) can0 5F3#0000007D00A30000
(1681172698.429188) can0 61A#0000000000000000
(1681172698.441989) can0 5F0#007C09790979041A
(1681172698.449008) can0 5F1#00BA030984840101
(1681172698.449270) can0 5F2#03E8010304620584
(1681172698.449548) can0 5F3#0000007D00A30000
(1681172698.492173) can0 5F0#007C096A096A041E
(1681172698.499304) can0 5F1#00BA030984840101
(1681172698.499563) can0 5F2#03E8010404620585
(1681172698.499807) can0 5F3#0000007D00A20000
(1681172698.529412) can0 61A#0000000000000000
(1681172698.542589) can0 5F0#007C09700970041B
(1681172698.549711) can0 5F1#00BA030984840101
(1681172698.549961) can0 5F2#03E8010304620585
(1681172698.550205) can0 5F3#0000007D00A20000
(1681172698.593021) can0 5F0#007C097009700416
(1681172698.599884) can0 5F1#00BA030984840101
(1681172698.600128) can0 5F2#03E8010304620585
(1681172698.600370) can0 5F3#0000007E00A20000
(1681172698.629504) can0 61A#0000000000000000
(1681172698.643195) can0 5F0#007C096A096A041A
(1681172698.650314) can0 5F1#00BA030984840101
(1681172698.650558) can0 5F2#03E8010304620585
(1681172698.650802) can0 5F3#0000007E00A20000
(1681172698.693376) can0 5F0#007C095609560416
(1681172698.700616) can0 5F1#00BA030984840101
(1681172698.700861) can0 5F2#03E8010104620585
(1681172698.701103) can0 5F3#0000007E00A00000
(1681172698.729868) can0 61A#0000000000000000
(1681172698.743552) can0 5F0#007C094D094D0417
(1681172698.751049) can0 5F1#00BA030984840101
(1681172698.751295) can0 5F2#03E8010104620585
(1681172698.751539) can0 5F3#0000007E00A00000
(1681172698.793770) can0 5F0#007C094D094D0416
(1681172698.801479) can0 5F1#00B9030984840101
(1681172698.801727) can0 5F2#03E800FC04620585
(1681172698.801970) can0 5F3#0000007D00A00000
(1681172698.829987) can0 61A#0000000000000000
(1681172698.844061) can0 5F0#007C094809480411
(1681172698.851949) can0 5F1#00B9030983830101
(1681172698.852230) can0 5F2#03E800FC04620585
(1681172698.852507) can0 5F3#0000007D00A00000
(1681172698.894496) can0 5F0#007C093C093C040D
(1681172698.902257) can0 5F1#00BA030983830101
(1681172698.902535) can0 5F2#03E800FA04620585
(1681172698.902816) can0 5F3#0000007D00A00000
(1681172698.930216) can0 61A#0000000000000000
(1681172698.944926) can0 5F0#007C093C093C040D
(1681172698.952559) can0 5F1#00BA030983830101
(1681172698.952841) can0 5F2#03E800FA04620585
(1681172698.953076) can0 5F3#0000007D00A10000
(1681172698.995357) can0 5F0#007C093C093C0402
(1681172699.003113) can0 5F1#00BB030983830101
(1681172699.003391) can0 5F2#03E800FA04620585
(1681172699.003668) can0 5F3#0000007D00A00000
(1681172699.030275) can0 61A#0000000000000000
(1681172699.045766) can0 5F0#007C093C093C03F8
(1681172699.053571) can0 5F1#00BC030983830101
(1681172699.053789) can0 5F2#03E800FA04620585
(1681172699.053996) can0 5F3#0000007D00A00000
(1681172699.096189) can0 5F0#007C0939093903F3
(1681172699.103695) can0 5F1#00BC030982820101
(1681172699.103941) can0 5F2#03E800FA04620585
(1681172699.104185) can0 5F3#0000007D00A00000
(1681172699.130498) can0 61A#0000000000000000
(1681172699.146621) can0 5F0#007C0937093703F3
(1681172699.153996) can0 5F1#00BD030982820101
(1681172699.154241) can0 5F2#03E800FA04620585
(1681172699.154485) can0 5F3#0000007D009F0000
(1681172699.196919) can0 5F0#007C0937093703F1
(1681172699.204300) can0 5F1#00BC030982820101
(1681172699.204545) can0 5F2#03E800FA04620585
(1681172699.204788) can0 5F3#0000007D009F0000
(1681172699.230848) can0 61A#0000000000000000
(1681172699.247229) can0 5F0#007C0934093403EC
(1681172699.254604) can0 5F1#00BD030982820101
(1681172699.254848) can0 5F2#03E800FA04620585
(1681172699.255093) can0 5F3#0000007C009F0000
(1681172699.297406) can0 5F0#007C0934093403E2
(1681172699.304784) can0 5F1#00BE030982820101
(1681172699.305029) can0 5F2#03E800FA04620585
(1681172699.305271) can0 5F3#0000007C009F0000
(1681172699.331075) can0 61A#0000000000000000
(1681172699.347445) can0 5F0#007D0948094803E3
(1681172699.355089) can0 5F1#00BE030982820101
(1681172699.355333) can0 5F2#03E800FA04620585
(1681172699.355576) can0 5F3#0000007C009F0000
(1681172699.398004) can0 5F0#007D0948094803DD
(1681172699.405650) can0 5F1#00BE030982820101
(1681172699.405896) can0 5F2#03E800FA04620585
(1681172699.406140) can0 5F3#0000007D009E0000
(1681172699.431295) can0 61A#0000000000000000
(1681172699.448181) can0 5F0#007D0934093403E3
(1681172699.456209) can0 5F1#00BE030982820101
(1681172699.456457) can0 5F2#03E800FC04620585
(1681172699.456700) can0 5F3#0000007D009D0000
(1681172699.498358) can0 5F0#007D093D093D03DC
(1681172699.506774) can0 5F1#00BE030982820101
(1681172699.507032) can0 5F2#03E800FC04620585
(1681172699.507286) can0 5F3#0000007D009C0000
(1681172699.531392) can0 61A#0000000000000000
(1681172699.548791) can0 5F0#007D093D093D03DA
(1681172699.557095) can0 5F1#00C0030982820101
(1681172699.557354) can0 5F2#03E800FF04620585
(1681172699.557607) can0 5F3#0000007D009B0000
(1681172699.599351) can0 5F0#007D093D093D03D6
(1681172699.607446) can0 5F1#00C0030982820101
(1681172699.607684) can0 5F2#03E800FF04620585
(1681172699.607905) can0 5F3#0000007D009B0000
(1681172699.631492) can0 61A#0000000000000000
(1681172699.649529) can0 5F0#007D094C094C03D1
(1681172699.657770) can0 5F1#00C1030982820101
(1681172699.658015) can0 5F2#03E800FF04620585
(1681172699.658239) can0 5F3#0000007D009B0000
(1681172699.699706) can0 5F0#007D094C094C03D3
(1681172699.708166) can0 5F1#00C0030982820101
(1681172699.708408) can0 5F2#03E800FF04620585
(1681172699.708629) can0 5F3#0000007D009B0000
(1681172699.731974) can0 61A#0000000000000000
(1681172699.749879) can0 5F0#007D094C094C03D5
(1681172699.758472) can0 5F1#00C1030982820101
(1681172699.758706) can0 5F2#03E800FF04620585
(1681172699.758930) can0 5F3#0000007D009B0000
(1681172699.800182) can0 5F0#007D094C094C03D5
(1681172699.809043) can0 5F1#00C0030982820101
(1681172699.809284) can0 5F2#03E8010104620585
(1681172699.809498) can0 5F3#0000007D00990000
(1681172699.832058) can0 61A#0000000000000000
(1681172699.850351) can0 5F0#007D0942094203D7
(1681172699.859200) can0 5F1#00C0030982820101
(1681172699.859443) can0 5F2#03E8010104620585
(1681172699.859652) can0 5F3#0000007E009A0000
(1681172699.900658) can0 5F0#007D0942094203D3
(1681172699.909369) can0 5F1#00C0030982820101
(1681172699.909634) can0 5F2#03E8010104620585
(1681172699.909880) can0 5F3#0000007E009A0000
(1681172699.932162) can0 61A#0000000000000000
(1681172699.951127) can0 5F0#007D0942094203D3
(1681172699.959583) can0 5F1#00C0030982820101
(1681172699.959849) can0 5F2#03E8010104620587
(1681172699.960090) can0 5F3#0000007E009A0000
(1681172700.001420) can0 5F0#007D0942094203CE
(1681172700.009889) can0 5F1#00C1030982820101
(1681172700.010151) can0 5F2#03E8010104620588
(1681172700.010390) can0 5F3#0000007E009A0000
(1681172700.032289) can0 61A#0000000000000000
(1681172700.051696) can0 5F0#007D0942094203D1
(1681172700.060033) can0 5F1#00C1030982820101
(1681172700.060277) can0 5F2#03E8010104620588
(1681172700.060496) can0 5F3#0000007E009A0000
(1681172700.102007) can0 5F0#007D0942094203D1
(1681172700.110207) can0 5F1#00C0030982820101
(1681172700.110441) can0 5F2#03E8010104620588
(1681172700.110653) can0 5F3#0000007E009A0000
(1681172700.132480) can0 61A#0000000000000000
(1681172700.152306) can0 5F0#007D0942094203C6
(1681172700.160510) can0 5F1#00C2030982820101
(1681172700.160741) can0 5F2#03E8010404620588
(1681172700.160948) can0 5F3#0000007E009A0000
(1681172700.202742) can0 5F0#007D0942094203C4
(1681172700.211063) can0 5F1#00C3030982820101
(1681172700.211333) can0 5F2#03E8010404620588
(1681172700.211540) can0 5F3#0000007D009B0000
(1681172700.232703) can0 61A#0000000000000000
(1681172700.252792) can0 5F0#007D0965096503C0
(1681172700.261241) can0 5F1#00C3030982820101
(1681172700.261509) can0 5F2#03E8010404620588
(1681172700.261757) can0 5F3#0000007D009C0000
(1681172700.303095) can0 5F0#007D0965096503C0
(1681172700.311420) can0 5F1#00C3030982820101
(1681172700.311650) can0 5F2#03E8010404620588
(1681172700.311858) can0 5F3#0000007D009C0000
(1681172700.333312) can0 61A#0000000000000000
(1681172700.353429) can0 5F0#007E0965096503C1
(1681172700.361630) can0 5F1#00C3030982820101
(1681172700.361891) can0 5F2#03E8010404620588
(1681172700.362128) can0 5F3#0000007D009C0000
(1681172700.404119) can0 5F0#007E0965096503C1
(1681172700.411795) can0 5F1#00C3030982820101
(1681172700.412058) can0 5F2#03E8010604620588
(1681172700.412295) can0 5F3#0000007D009C0000
(1681172700.433439) can0 61A#0000000000000000
(1681172700.454130) can0 5F0#007E0965096503BD
(1681172700.461949) can0 5F1#00C3030982820101
(1681172700.462179) can0 5F2#03E8010604620588
(1681172700.462386) can0 5F3#0000007D009D0000
(1681172700.504692) can0 5F0#007E096E096E03BC
(1681172700.512373) can0 5F1#00C4030982820101
(1681172700.512645) can0 5F2#03E8010604620588
(1681172700.512850) can0 5F3#0000007D009D0000
(1681172700.533889) can0 61A#0000000000000000
(1681172700.555253) can0 5F0#007E096E096E03C3
(1681172700.562674) can0 5F1#00C3030982820101
(1681172700.562942) can0 5F2#03E8010604620588
(1681172700.563185) can0 5F3#0000007D009E0000
(1681172700.605302) can0 5F0#007E096E096E03C5
(1681172700.613106) can0 5F1#00C3030982820101
(1681172700.613375) can0 5F2#03E8010604620588
(1681172700.613621) can0 5F3#0000007D009F0000
(1681172700.634110) can0 61A#0000000000000000
(1681172700.655482) can0 5F0#007E096E096E03C3
(1681172700.663287) can0 5F1#00C3030982820101
(1681172700.663554) can0 5F2#03E8010604620588
(1681172700.663761) can0 5F3#0000007D009F0000
(1681172700.705660) can0 5F0#007E096E096E03BD
(1681172700.713457) can0 5F1#00C3030982820101
(1681172700.713733) can0 5F2#03E8010604620588
(1681172700.713941) can0 5F3#0000007D009F0000
(1681172700.734208) can0 61A#0000000000000000
(1681172700.756212) can0 5F0#007E096E096E03BB
(1681172700.763638) can0 5F1#00C4030982820101
(1681172700.763907) can0 5F2#03E8010604620588
(1681172700.764114) can0 5F3#0000007D00A00000
(1681172700.806657) can0 5F0#007E096E096E03C0
(1681172700.814080) can0 5F1#00C4030982820101
(1681172700.814309) can0 5F2#03E8010904620588
(1681172700.814516) can0 5F3#0000007D00A00000
(1681172700.834425) can0 61A#0000000000000000
(1681172700.856883) can0 5F0#007E097D097D03C5
(1681172700.864405) can0 5F1#00C4030982820101
(1681172700.864672) can0 5F2#03E8010904620588
(1681172700.864909) can0 5F3#0000007D00A20000
(1681172700.907170) can0 5F0#007E097D097D03C7
(1681172700.914832) can0 5F1#00C3030982820101
(1681172700.915093) can0 5F2#03E8010904620588
(1681172700.915331) can0 5F3#0000007D00A10000
(1681172700.934559) can0 61A#0000000000000000
(1681172700.957439) can0 5F0#007E097D097D03C5
(1681172700.964973) can0 5F1#00C4030982820101
(1681172700.965240) can0 5F2#03E8010804620588
(1681172700.965484) can0 5F3#0000007D00A00000
(1681172701.007613) can0 5F0#007E097D097D03C5
(1681172701.015406) can0 5F1#00C4030982820101
(1681172701.015669) can0 5F2#03E8010804620588
(1681172701.015908) can0 5F3#0000007D00A00000
(1681172701.034766) can0 61A#0000000000000000
(1681172701.057979) can0 5F0#007E0978097803C9
(1681172701.065609) can0 5F1#00C3030982820101
(1681172701.065863) can0 5F2#03E801080462058A
(1681172701.066096) can0 5F3#0000007D00A00000
(1681172701.108269) can0 5F0#007E0978097803CD
(1681172701.115774) can0 5F1#00C3030982820101
(1681172701.116025) can0 5F2#03E801080462058B
(1681172701.116258) can0 5F3#0000007D00A10000
(1681172701.134885) can0 61A#0000000000000000
(1681172701.158407) can0 5F0#007E0978097803CF
(1681172701.166058) can0 5F1#00C3030982820101
(1681172701.166324) can0 5F2#03E801080462058B
(1681172701.166566) can0 5F3#0000007D00A00000
(1681172701.208833) can0 5F0#007E0978097803CA
(1681172701.216473) can0 5F1#00C2030982820101
(1681172701.216725) can0 5F2#03E801080462058C
(1681172701.216968) can0 5F3#0000007D00A00000
(1681172701.235212) can0 61A#0000000000000000
(1681172701.259260) can0 5F0#007E0978097803CA
(1681172701.266766) can0 5F1#00C2030982820101
(1681172701.267013) can0 5F2#03E801080462058C
(1681172701.267252) can0 5F3#0000007D00A00000
(1681172701.309431) can0 5F0#007E0978097803C9
(1681172701.316938) can0 5F1#00C2030982820101
(1681172701.317181) can0 5F2#03E801080462058C
(1681172701.317424) can0 5F3#0000007D00A00000
(1681172701.335294) can0 61A#0000000000000000
(1681172701.359605) can0 5F0#007F0978097803CE
(1681172701.367113) can0 5F1#00C2030982820101
(1681172701.367360) can0 5F2#03E801080462058C
(1681172701.367602) can0 5F3#0000007C00A00000
(1681172701.409917) can0 5F0#007F098C098C03D0
(1681172701.417287) can0 5F1#00C1030982820101
(1681172701.417533) can0 5F2#03E801080462058C
(1681172701.417775) can0 5F3#0000007C009F0000
(1681172701.435660) can0 61A#0000000000000000
(1681172701.460337) can0 5F0#007F098C098C03D1
(1681172701.467593) can0 5F1#00C0030982820101
(1681172701.467839) can0 5F2#03E801060462058C
(1681172701.468081) can0 5F3#0000007C009F0000
(1681172701.510646) can0 5F0#007F098C098C03D1
(1681172701.517773) can0 5F1#00C0030982820101
(1681172701.518016) can0 5F2#03E801060462058C
(1681172701.518258) can0 5F3#0000007C009F0000
(1681172701.535884) can0 61A#0000000000000000
(1681172701.560821) can0 5F0#007F0982098203D5
(1681172701.568073) can0 5F1#00C0030982820101
(1681172701.568321) can0 5F2#03E801060462058C
(1681172701.568563) can0 5F3#0000007C009F0000
(1681172701.610998) can0 5F0#007F0982098203DA
(1681172701.618249) can0 5F1#00C0030982820101
(1681172701.618492) can0 5F2#03E801060462058C
(1681172701.618735) can0 5F3#0000007C009F0000
(1681172701.635976) can0 61A#0000000000000000
(1681172701.661172) can0 5F0#007F0982098203DA
(1681172701.668421) can0 5F1#00BF030982820101
(1681172701.668667) can0 5F2#03E801060462058C
(1681172701.668910) can0 5F3#0000007C009F0000
(1681172701.711477) can0 5F0#007F0982098203DA
(1681172701.718983) can0 5F1#00BF030982820101
(1681172701.719226) can0 5F2#03E801060462058C
(1681172701.719469) can0 5F3#0000007C009F0000
(1681172701.736318) can0 61A#0000000000000000
(1681172701.761789) can0 5F0#007F0982098203D7
(1681172701.769156) can0 5F1#00BF030982820101
(1681172701.769402) can0 5F2#03E801060462058C
(1681172701.769646) can0 5F3#0000007D009F0000
(1681172701.812340) can0 5F0#007F0982098203DA
(1681172701.819331) can0 5F1#00BF030982820101
(1681172701.819575) can0 5F2#03E801060462058C
(1681172701.819817) can0 5F3#0000007D00A00000
(1681172701.836664) can0 61A#0000000000000000
(1681172701.862511) can0 5F0#007F096E096E03D9
(1681172701.869507) can0 5F1#00BF030982820101
(1681172701.869781) can0 5F2#03E801030462058C
(1681172701.870025) can0 5F3#0000007D009F0000
(1681172701.912821) can0 5F0#007F095F095F03E1
(1681172701.919809) can0 5F1#00BF030982820101
(1681172701.920054) can0 5F2#03E801030462058C
(1681172701.920300) can0 5F3#0000007D009C0000
(1681172701.936906) can0 61A#0000000000000000
(1681172701.962995) can0 5F0#007F095F095F03E1
(1681172701.970241) can0 5F1#00BF030982820101
(1681172701.970488) can0 5F2#03E801030462058C
(1681172701.970732) can0 5F3#0000007D009E0000
(1681172702.013296) can0 5F0#007F095F095F03E2
(1681172702.020420) can0 5F1#00BF030982820101
(1681172702.020665) can0 5F2#03E801030462058C
(1681172702.020910) can0 5F3#0000007D009E0000
(1681172702.037260) can0 61A#0000000000000000
(1681172702.063638) can0 5F0#007F095F095F03E1
(1681172702.070769) can0 5F1#00BF030982820101
(1681172702.071055) can0 5F2#03E801030462058E
(1681172702.071287) can0 5F3#0000007D009E0000
(1681172702.113815) can0 5F0#007F095F095F03DD
(1681172702.121072) can0 5F1#00BF030982820101
(1681172702.121369) can0 5F2#03E801030462058F
(1681172702.121611) can0 5F3#0000007D009D0000
(1681172702.137793) can0 61A#0000000000000000
(1681172702.164209) can0 5F0#007F095F095F03E1
(1681172702.171333) can0 5F1#00BF030982820101
(1681172702.171577) can0 5F2#03E801030462058F
(1681172702.171819) can0 5F3#0000007D009C0000
(1681172702.214388) can0 5F0#007F095F095F03E4
(1681172702.221643) can0 5F1#00BE030982820101
(1681172702.221886) can0 5F2#03E8010104620590
(1681172702.222128) can0 5F3#0000007D009C0000
(1681172702.237940) can0 61A#0000000000000000
(1681172702.264559) can0 5F0#007F0956095603E3
(1681172702.272195) can0 5F1#00BD030982820101
(1681172702.272440) can0 5F2#03E8010104620590
(1681172702.272685) can0 5F3#0000007D009C0000
(1681172702.314868) can0 5F0#00800956095603E5
(1681172702.322376) can0 5F1#00BD030982820101
(1681172702.322622) can0 5F2#03E8010104620590
(1681172702.322867) can0 5F3#0000007D009C0000
(1681172702.337925) can0 61A#0000000000000000
(1681172702.365168) can0 5F0#00800956095603DB
(1681172702.372563) can0 5F1#00BD030982820101
(1681172702.372822) can0 5F2#03E8010104620590
(1681172702.373071) can0 5F3#0000007D009C0000
(1681172702.415338) can0 5F0#00800956095603DE
(1681172702.422857) can0 5F1#00BE030982820101
(1681172702.423104) can0 5F2#03E8010104620590
(1681172702.423355) can0 5F3#0000007D009C0000
(1681172702.438019) can0 61A#0000000000000000
(1681172702.465646) can0 5F0#00800956095603DC
(1681172702.473177) can0 5F1#00BE030982820101
(1681172702.473453) can0 5F2#03E8010104620590
(1681172702.473739) can0 5F3#0000007D009C0000
(1681172702.515956) can0 5F0#00800956095603DC
(1681172702.523348) can0 5F1#00BE030982820101
(1681172702.523606) can0 5F2#03E8010104620590
(1681172702.523862) can0 5F3#0000007D009C0000
(1681172702.538231) can0 61A#0000000000000000
(1681172702.565998) can0 5F0#00800956095603DC
(1681172702.573709) can0 5F1#00BE030982820101
(1681172702.573942) can0 5F2#03E8010104620590
(1681172702.574158) can0 5F3#0000007D009C0000
(1681172702.616306) can0 5F0#00800956095603DB
(1681172702.623996) can0 5F1#00BE030982820101
(1681172702.624238) can0 5F2#03E8010104620590
(1681172702.624464) can0 5F3#0000007D009D0000
(1681172702.638338) can0 61A#0000000000000000
(1681172702.666606) can0 5F0#00800956095603D6
(1681172702.674180) can0 5F1#00BE030982820101
(1681172702.674422) can0 5F2#03E8010104620590
(1681172702.674646) can0 5F3#0000007D009D0000
(1681172702.717037) can0 5F0#00800956095603D5
(1681172702.724479) can0 5F1#00BF030982820101
(1681172702.724722) can0 5F2#03E8010104620590
(1681172702.724942) can0 5F3#0000007D009D0000
(1681172702.738430) can0 61A#0000000000000000
(1681172702.767250) can0 5F0#00800956095603DA
(1681172702.774948) can0 5F1#00BE030982820101
(1681172702.775224) can0 5F2#03E8010104620590
(1681172702.775490) can0 5F3#0000007D009C0000
(1681172702.817551) can0 5F0#00800956095603DD
(1681172702.825626) can0 5F1#00BE030982820101
(1681172702.825904) can0 5F2#03E8010104620590
(1681172702.826157) can0 5F3#0000007D009C0000
(1681172702.838522) can0 61A#0000000000000000
(1681172702.867985) can0 5F0#00800956095603D2
(1681172702.876048) can0 5F1#00BF030982820101
(1681172702.876309) can0 5F2#03E8010104620590
(1681172702.876545) can0 5F3#0000007D009C0000
(1681172702.918156) can0 5F0#00800956095603CC
(1681172702.926491) can0 5F1#00C0030982820101
(1681172702.926753) can0 5F2#03E8010104620590
(1681172702.926990) can0 5F3#0000007D009C0000
(1681172702.938873) can0 61A#0000000000000000
(1681172702.968336) can0 5F0#00800956095603C8
(1681172702.976659) can0 5F1#00C0030982820101
(1681172702.976917) can0 5F2#03E8010104620590
(1681172702.977157) can0 5F3#0000007D009B0000
(1681172703.018635) can0 5F0#00800956095603CB
(1681172703.026963) can0 5F1#00C0030982820101
(1681172703.027222) can0 5F2#03E8010104620590
(1681172703.027460) can0 5F3#0000007D009B0000
(1681172703.039095) can0 61A#0000000000000000
(1681172703.069199) can0 5F0#00800956095603CE
(1681172703.077390) can0 5F1#00C1030982820101
(1681172703.077650) can0 5F2#03E8010404620590
(1681172703.077888) can0 5F3#0000007D009D0000
(1681172703.119369) can0 5F0#00800965096503CE
(1681172703.127819) can0 5F1#00C0030982820101
(1681172703.128079) can0 5F2#03E8010404620590
(1681172703.128315) can0 5F3#0000007D009D0000
(1681172703.139433) can0 61A#0000000000000000
(1681172703.169638) can0 5F0#00800965096503C9
(1681172703.178351) can0 5F1#00C1030982820101
(1681172703.178616) can0 5F2#03E8010404620590
(1681172703.178821) can0 5F3#0000007D009D0000
(1681172703.219819) can0 5F0#00800965096503C0
(1681172703.228524) can0 5F1#00C2030982820101
(1681172703.228790) can0 5F2#03E8010404620590
(1681172703.229033) can0 5F3#0000007D009D0000
(1681172703.239647) can0 61A#0000000000000000
(1681172703.270007) can0 5F0#00800965096503C1
(1681172703.278961) can0 5F1#00C2030982820101
(1681172703.279228) can0 5F2#03E8010404620590
(1681172703.279434) can0 5F3#0000007D009E0000
(1681172703.320169) can0 5F0#00810965096503C6
(1681172703.329135) can0 5F1#00C1030982820101
(1681172703.329404) can0 5F2#03E8010404620590
(1681172703.329612) can0 5F3#0000007D009D0000
(1681172703.340141) can0 61A#0000000000000000
(1681172703.370600) can0 5F0#00810965096503C8
(1681172703.379568) can0 5F1#00C1030982820101
(1681172703.379835) can0 5F2#03E8010604620590
(1681172703.380042) can0 5F3#0000007D009C0000
(1681172703.421034) can0 5F0#0081096E096E03CA
(1681172703.429872) can0 5F1#00C1030982820101
(1681172703.430139) can0 5F2#03E8010604620590
(1681172703.430346) can0 5F3#0000007D009D0000
(1681172703.440371) can0 61A#0000000000000000
(1681172703.471242) can0 5F0#0081096E096E03C4
(1681172703.480079) can0 5F1#00C1030982820101
(1681172703.480343) can0 5F2#03E8010604620590
(1681172703.480579) can0 5F3#0000007D009D0000
(1681172703.521812) can0 5F0#0081096E096E03C6
(1681172703.530254) can0 5F1#00C1030982820101
(1681172703.530522) can0 5F2#03E8010604620590
(1681172703.530758) can0 5F3#0000007D009E0000
(1681172703.540489) can0 61A#0000000000000000
(1681172703.571945) can0 5F0#0081096E096E03C4
(1681172703.580400) can0 5F1#00C1030982820101
(1681172703.580666) can0 5F2#03E8010604620590
(1681172703.580872) can0 5F3#0000007D009D0000
(1681172703.622124) can0 5F0#0081096E096E03CB
(1681172703.631342) can0 5F1#00C1030982820101
(1681172703.631607) can0 5F2#03E8010604620590
(1681172703.631827) can0 5F3#0000007D009B0000
(1681172703.640681) can0 61A#0000000000000000
(1681172703.672716) can0 5F0#0081096E096E03CC
(1681172703.681543) can0 5F1#00C1030982820101
(1681172703.681810) can0 5F2#03E8010604620590
(1681172703.682057) can0 5F3#0000007D009E0000
(1681172703.722894) can0 5F0#0081096E096E03C5
(1681172703.731721) can0 5F1#00C1030982820101
(1681172703.731990) can0 5F2#03E8010604620590
(1681172703.732236) can0 5F3#0000007D009D0000
(1681172703.740797) can0 61A#0000000000000000
(1681172703.773038) can0 5F0#0081096E096E03C6
(1681172703.781998) can0 5F1#00C1030982820101
(1681172703.782277) can0 5F2#03E8010604620590
(1681172703.782492) can0 5F3#0000007D009D0000
(1681172703.823217) can0 5F0#0081096E096E03C5
(1681172703.832174) can0 5F1#00C1030982820101
(1681172703.832446) can0 5F2#03E8010604620590
(1681172703.832661) can0 5F3#0000007D009F0000
(1681172703.841020) can0 61A#0000000000000000
(1681172703.873685) can0 5F0#0081096E096E03CD
(1681172703.882510) can0 5F1#00C1030982820101
(1681172703.882782) can0 5F2#03E8010604620590
(1681172703.883031) can0 5F3#0000007D009F0000
(1681172703.923858) can0 5F0#0081096E096E03C8
(1681172703.932680) can0 5F1#00C1030982820101
(1681172703.932948) can0 5F2#03E8010604620590
(1681172703.933194) can0 5F3#0000007D009F0000
(1681172703.941279) can0 61A#0000000000000000
(1681172703.973995) can0 5F0#0081096E096E03CB
(1681172703.982955) can0 5F1#00C1030982820101
(1681172703.983227) can0 5F2#03E8010604620590
(1681172703.983442) can0 5F3#0000007D009F0000
(1681172704.024172) can0 5F0#0081096E096E03C7
(1681172704.033131) can0 5F1#00C1030982820101
(1681172704.033397) can0 5F2#03E8010604620590
(1681172704.033646) can0 5F3#0000007D009F0000
(1681172704.041482) can0 61A#0000000000000000
(1681172704.074796) can0 5F0#0081096E096E03C3
(1681172704.083596) can0 5F1#00C1030982820101
(1681172704.083857) can0 5F2#03E8010604620592
(1681172704.084105) can0 5F3#0000007D009F0000
(1681172704.125219) can0 5F0#0081096E096E03C8
(1681172704.134128) can0 5F1#00C1030982820101
(1681172704.134417) can0 5F2#03E8010604620592
(1681172704.134659) can0 5F3#0000007D009F0000
(1681172704.141606) can0 61A#0000000000000000
(1681172704.175488) can0 5F0#0081096E096E03C5
(1681172704.184395) can0 5F1#00C1030982820101
(1681172704.184656) can0 5F2#03E8010604620593
(1681172704.184914) can0 5F3#0000007D009F0000
(1681172704.225644) can0 5F0#0081096E096E03C6
(1681172704.234690) can0 5F1#00C1030982820101
(1681172704.234943) can0 5F2#03E8010604620594
(1681172704.235194) can0 5F3#0000007D009F0000
(1681172704.241736) can0 61A#0000000000000000
(1681172704.276202) can0 5F0#0081096E096E03C6
(1681172704.284996) can0 5F1#00C0030982820101
(1681172704.285247) can0 5F2#03E8010604620594
(1681172704.285495) can0 5F3#0000007C009F0000
(1681172704.326640) can0 5F0#00820982098203C9
(1681172704.335554) can0 5F1#00C1030982820101
(1681172704.335804) can0 5F2#03E8010604620594
(1681172704.336052) can0 5F3#0000007C009F0000
(1681172704.341890) can0 61A#0000000000000000
(1681172704.376845) can0 5F0#00820982098203D0
(1681172704.385775) can0 5F1#00C0030982820101
(1681172704.386019) can0 5F2#03E8010604620594
(1681172704.386259) can0 5F3#0000007C009F0000
(1681172704.427164) can0 5F0#00820982098203D2
(1681172704.436069) can0 5F1#00C0030982820101
(1681172704.436355) can0 5F2#03E8010604620594
(1681172704.436597) can0 5F3#0000007C009F0000
(1681172704.442011) can0 61A#0000000000000000
(1681172704.477726) can0 5F0#00820982098203D2
(1681172704.486339) can0 5F1#00C0030982820101
(1681172704.486590) can0 5F2#03E8010604620594
(1681172704.486837) can0 5F3#0000007C009E0000
(1681172704.527976) can0 5F0#00820982098203D1
(1681172704.536514) can0 5F1#00C0030982820101
(1681172704.536765) can0 5F2#03E8010604620594
(1681172704.537013) can0 5F3#0000007C009E0000
(1681172704.542199) can0 61A#0000000000000000
(1681172704.578572) can0 5F0#00820982098203CE
(1681172704.586852) can0 5F1#00C0030982820101
(1681172704.587137) can0 5F2#03E8010604620594
(1681172704.587421) can0 5F3#0000007C009F0000
(1681172704.628624) can0 5F0#00820982098203D4
(1681172704.637283) can0 5F1#00C0030982820101
(1681172704.637571) can0 5F2#03E8010604620594
(1681172704.637812) can0 5F3#0000007D009F0000
(1681172704.642712) can0 61A#0000000000000000
(1681172704.679279) can0 5F0#0082096E096E03D8
(1681172704.687426) can0 5F1#00BF030982820101
(1681172704.687675) can0 5F2#03E8010604620594
(1681172704.687921) can0 5F3#0000007D009F0000
(1681172704.729323) can0 5F0#0082096E096E03DC
(1681172704.737731) can0 5F1#00BF030982820101
(1681172704.737981) can0 5F2#03E8010604620594
(1681172704.738228) can0 5F3#0000007D009F0000
(1681172704.742898) can0 61A#0000000000000000
(1681172704.779623) can0 5F0#0082096E096E03E0
(1681172704.787912) can0 5F1#00BE030982820101
(1681172704.788162) can0 5F2#03E8010604620594
(1681172704.788409) can0 5F3#0000007D009F0000
(1681172704.829802) can0 5F0#0082096E096E03DA
(1681172704.838339) can0 5F1#00BF030982820101
(1681172704.838588) can0 5F2#03E8010304620594
(1681172704.838844) can0 5F3#0000007D009F0000
(1681172704.842865) can0 61A#0000000000000000
(1681172704.880107) can0 5F0#0082095F095F03D6
(1681172704.888640) can0 5F1#00BF030982820101
(1681172704.888891) can0 5F2#03E8010304620596
(1681172704.889144) can0 5F3#0000007D009E0000
(1681172704.930545) can0 5F0#0082095F095F03D4
(1681172704.938828) can0 5F1#00C0030982820101
(1681172704.939081) can0 5F2#03E8010304620597
(1681172704.939334) can0 5F3#0000007D009F0000
(1681172704.943090) can0 61A#0000000000000000
(1681172704.980969) can0 5F0#0082095F095F03D7
(1681172704.988998) can0 5F1#00BF030982820101
(1681172704.989255) can0 5F2#03E8010304620597
(1681172704.989550) can0 5F3#0000007D009E0000
(1681172705.031408) can0 5F0#0082095F095F03D6
(1681172705.039172) can0 5F1#00BF030982820101
(1681172705.039437) can0 5F2#03E8010304620596
(1681172705.039692) can0 5F3#0000007E009E0000
(1681172705.043189) can0 61A#0000000000000000
(1681172705.081874) can0 5F0#0082094B094B03D9
(1681172705.089542) can0 5F1#00BF030982820101
(1681172705.089795) can0 5F2#03E8010304620596
(1681172705.090039) can0 5F3#0000007E009E0000
(1681172705.132199) can0 5F0#0082094B094B03D4
(1681172705.139843) can0 5F1#00BF030982820101
(1681172705.140116) can0 5F2#03E8010304620596
(1681172705.140368) can0 5F3#0000007E009E0000
(1681172705.143338) can0 61A#0000000000000000
(1681172705.182192) can0 5F0#0082094B094B03D0
(1681172705.190111) can0 5F1#00C0030982820101
(1681172705.190384) can0 5F2#03E8010304620596
(1681172705.190641) can0 5F3#0000007E009E0000
(1681172705.232483) can0 5F0#0082094B094B03D3
(1681172705.240528) can0 5F1#00C0030982820101
(1681172705.240796) can0 5F2#03E8010304620596
(1681172705.241060) can0 5F3#0000007E009E0000
(1681172705.243517) can0 61A#0000000000000000
(1681172705.283076) can0 5F0#0082094B094B03D3
(1681172705.291166) can0 5F1#00C0030982820101
(1681172705.291446) can0 5F2#03E8010304620596
(1681172705.291715) can0 5F3#0000007E009D0000
(1681172705.333379) can0 5F0#0083094B094B03D3
(1681172705.341745) can0 5F1#00C0030982820101
(1681172705.342038) can0 5F2#03E8010404620596
(1681172705.342299) can0 5F3#0000007D009C0000
(1681172705.343766) can0 61A#0000000000000000
(1681172705.383557) can0 5F0#00830965096503CC
(1681172705.391907) can0 5F1#00C0030982820101
(1681172705.392189) can0 5F2#03E8010404620596
(1681172705.392441) can0 5F3#0000007D009C0000
(1681172705.433981) can0 5F0#00830965096503C7
(1681172705.442453) can0 5F1#00C1030982820101
(1681172705.442728) can0 5F2#03E8010404620596
(1681172705.442976) can0 5F3#0000007D009C0000
(1681172705.444094) can0 61A#0000000000000000
(1681172705.483996) can0 5F0#00830965096503C8
(1681172705.492705) can0 5F1#00C1030982820101
(1681172705.492976) can0 5F2#03E8010404620596
(1681172705.493190) can0 5F3#0000007D009B0000
(1681172705.534303) can0 5F0#00830965096503CD
(1681172705.543009) can0 5F1#00C1030982820101
(1681172705.543279) can0 5F2#03E8010404620596
(1681172705.543496) can0 5F3#0000007D009B0000
(1681172705.544272) can0 61A#0000000000000000
(1681172705.584479) can0 5F0#00830965096503C8
(1681172705.593449) can0 5F1#00C1030982820101
(1681172705.593752) can0 5F2#03E8010404620596
(1681172705.593966) can0 5F3#0000007D009C0000
(1681172705.634656) can0 5F0#00830965096503C3
(1681172705.643750) can0 5F1#00C1030982820101
(1681172705.644019) can0 5F2#03E8010404620596
(1681172705.644232) can0 5F3#0000007D009C0000
(1681172705.644443) can0 61A#0000000000000000
(1681172705.685344) can0 5F0#00830965096503C0
(1681172705.694072) can0 5F1#00C1030982820101
(1681172705.694307) can0 5F2#03E8010604620596
(1681172705.694521) can0 5F3#0000007D009C0000
(1681172705.735396) can0 5F0#00830965096503C0
(1681172705.744247) can0 5F1#00C1030982820101
(1681172705.744475) can0 5F2#03E8010604620597
(1681172705.744686) can0 5F3#0000007D009C0000
(1681172705.744935) can0 61A#0000000000000000
(1681172705.785716) can0 5F0#0083096E096E03C3
(1681172705.794658) can0 5F1#00C2030982820101
(1681172705.794930) can0 5F2#03E8010604620597
(1681172705.795145) can0 5F3#0000007D009C0000
(1681172705.835999) can0 5F0#0083096E096E03C3
(1681172705.844736) can0 61A#0000000000000000
(1681172705.844966) can0 5F1#00C1030982820101
(1681172705.845182) can0 5F2#03E8010604620597
(1681172705.845434) can0 5F3#0000007D009D0000
(1681172705.886473) can0 5F0#0083096E096E03C0
(1681172705.895426) can0 5F1#00C1030982820101
(1681172705.895692) can0 5F2#03E8010604620597
(1681172705.895941) can0 5F3#0000007D009E0000
(1681172705.936643) can0 5F0#0083096E096E03BD
(1681172705.944985) can0 61A#0000000000000000
(1681172705.945735) can0 5F1#00C2030982820101
(1681172705.945984) can0 5F2#03E8010904620597
(1681172705.946228) can0 5F3#0000007D009E0000
(1681172705.986791) can0 5F0#0083096E096E03BC
(1681172705.996005) can0 5F1#00C3030982820101
(1681172705.996278) can0 5F2#03E8010904620597
(1681172705.996494) can0 5F3#0000007C00A00000
(1681172706.037091) can0 5F0#0083097D097D03BF
(1681172706.045432) can0 61A#0000000000000000
(1681172706.046261) can0 5F1#00C3030982820101
(1681172706.046516) can0 5F2#03E8010904620597
(1681172706.046769) can0 5F3#0000007C00A00000
(1681172706.087394) can0 5F0#00830991099103C0
(1681172706.096612) can0 5F1#00C2030982820101
(1681172706.096883) can0 5F2#03E8010904620597
(1681172706.097098) can0 5F3#0000007D00A00000
(1681172706.137566) can0 5F0#0083097D097D03C1
(1681172706.145695) can0 61A#0000000000000000
(1681172706.146749) can0 5F1#00C2030982820101
(1681172706.146999) can0 5F2#03E8010904620597
(1681172706.147246) can0 5F3#0000007C00A00000
(1681172706.188133) can0 5F0#0083097D097D03BC
(1681172706.196966) can0 5F1#00C2030982820101
(1681172706.197202) can0 5F2#03E8010904620597
(1681172706.197418) can0 5F3#0000007D00A10000
(1681172706.238175) can0 5F0#00830991099103C1
(1681172706.245830) can0 61A#0000000000000000
(1681172706.247263) can0 5F1#00C2030982820101
(1681172706.247536) can0 5F2#03E8010904620597
(1681172706.247790) can0 5F3#0000007D00A00000
(1681172706.288359) can0 5F0#0083097D097D03C8
(1681172706.297706) can0 5F1#00C2030982820101
(1681172706.297939) can0 5F2#03E8010904620597
(1681172706.298156) can0 5F3#0000007D00A00000
(1681172706.338659) can0 5F0#0084097D097D03D3
(1681172706.346219) can0 61A#0000000000000000
(1681172706.347838) can0 5F1#00C0030982820101
(1681172706.348090) can0 5F2#03E8010904620597
(1681172706.348338) can0 5F3#0000007C00A00000
(1681172706.388834) can0 5F0#00840991099103D4
(1681172706.398441) can0 5F1#00C0030982820101
(1681172706.398678) can0 5F2#03E8010804620597
(1681172706.398893) can0 5F3#0000007C00A00000
(1681172706.439141) can0 5F0#0084098C098C03D0
(1681172706.446586) can0 61A#0000000000000000
(1681172706.448444) can0 5F1#00C0030982820101
(1681172706.448695) can0 5F2#03E8010804620597
(1681172706.448943) can0 5F3#0000007D00A00000
(1681172706.489572) can0 5F0#0084098C098C03D6
(1681172706.498791) can0 5F1#00C0030982820101
(1681172706.499028) can0 5F2#03E8010804620597
(1681172706.499243) can0 5F3#0000007D009F0000
(1681172706.540008) can0 5F0#00840978097803D6
(1681172706.546684) can0 61A#0000000000000000
(1681172706.548929) can0 5F1#00BF030982820101
(1681172706.549180) can0 5F2#03E8010604620597
(1681172706.549428) can0 5F3#0000007D009F0000
(1681172706.590441) can0 5F0#0084096E096E03E1
(1681172706.599136) can0 5F1#00BF030982820101
(1681172706.599408) can0 5F2#03E8010604620597
(1681172706.599660) can0 5F3#0000007C009F0000
(1681172706.640743) can0 5F0#00840982098203DE
(1681172706.646777) can0 61A#0000000000000000
(1681172706.649276) can0 5F1#00BE030982820101
(1681172706.649530) can0 5F2#03E8010604620597
(1681172706.649778) can0 5F3#0000007D009F0000
(1681172706.691175) can0 5F0#0084096E096E03E2
(1681172706.699485) can0 5F1#00BE030982820101
(1681172706.699753) can0 5F2#03E8010604620597
(1681172706.700004) can0 5F3#0000007D009E0000
(1681172706.741355) can0 5F0#0084096E096E03E2
(1681172706.746864) can0 61A#0000000000000000
(1681172706.750013) can0 5F1#00BD030982820101
(1681172706.750264) can0 5F2#03E8010304620597
(1681172706.750512) can0 5F3#0000007D00A00000
(1681172706.791532) can0 5F0#0084096E096E03E3
(1681172706.800349) can0 5F1#00BE030982820101
(1681172706.800618) can0 5F2#03E8010304620597
(1681172706.800869) can0 5F3#0000007D009F0000
(1681172706.841729) can0 5F0#0084095F095F03E6
(1681172706.847077) can0 61A#0000000000000000
(1681172706.850748) can0 5F1#00BE030982820101
(1681172706.850998) can0 5F2#03E8010304620597
(1681172706.851246) can0 5F3#0000007D009F0000
(1681172706.891889) can0 5F0#0084095F095F03E7
(1681172706.900924) can0 5F1#00BD030982820101
(1681172706.901178) can0 5F2#03E8010104620599
(1681172706.901429) can0 5F3#0000007D009F0000
(1681172706.942439) can0 5F0#00840956095603E6
(1681172706.947153) can0 61A#0000000000000000
(1681172706.951221) can0 5F1#00BD030982820101
(1681172706.951468) can0 5F2#03E8010104620599
(1681172706.951715) can0 5F3#0000007D009F0000
(1681172706.992616) can0 5F0#00840956095603E5
(1681172707.001401) can0 5F1#00BD030982820101
(1681172707.001651) can0 5F2#03E801010462059A
(1681172707.001898) can0 5F3#0000007D009E0000
(1681172707.043045) can0 5F0#00840956095603E0
(1681172707.047504) can0 61A#0000000000000000
(1681172707.051828) can0 5F1#00BC030982820101
(1681172707.052075) can0 5F2#03E801010462059B
(1681172707.052321) can0 5F3#0000007D009D0000
(1681172707.093346) can0 5F0#00840956095603E2
(1681172707.102272) can0 5F1#00BD030982820101
(1681172707.102521) can0 5F2#03E801010462059B
(1681172707.102768) can0 5F3#0000007D009D0000
(1681172707.143524) can0 5F0#00840956095603E1
(1681172707.147585) can0 61A#0000000000000000
(1681172707.152692) can0 5F1#00BD030982820101
(1681172707.152939) can0 5F2#03E801010462059B
(1681172707.153185) can0 5F3#0000007D009C0000
(1681172707.193718) can0 5F0#00840956095603E2
(1681172707.202999) can0 5F1#00BD030982820101
(1681172707.203248) can0 5F2#03E801010462059B
(1681172707.203495) can0 5F3#0000007D009C0000
(1681172707.244004) can0 5F0#00840956095603E1
(1681172707.247827) can0 61A#0000000000000000
(1681172707.253587) can0 5F1#00BD030982820101
(1681172707.253868) can0 5F2#03E801010462059B
(1681172707.254105) can0 5F3#0000007D009C0000
(1681172707.294347) can0 5F0#00840956095603DF
(1681172707.303769) can0 5F1#00BD030982820101
(1681172707.304055) can0 5F2#03E801010462059B
(1681172707.304296) can0 5F3#0000007D009B0000
(1681172707.344509) can0 5F0#00850956095603DE
(1681172707.348207) can0 61A#0000000000000000
(1681172707.353908) can0 5F1#00BD030982820101
(1681172707.354154) can0 5F2#03E801010462059B
(1681172707.354401) can0 5F3#0000007D009C0000
(1681172707.394781) can0 5F0#00850956095603DE
(1681172707.404214) can0 5F1#00BD030982820101
(1681172707.404464) can0 5F2#03E801010462059B
(1681172707.404711) can0 5F3#0000007D009B0000
(1681172707.444832) can0 5F0#00850956095603E0
(1681172707.448399) can0 61A#0000000000000000
(1681172707.454514) can0 5F1#00BD030982820101
(1681172707.454760) can0 5F2#03E801010462059B
(1681172707.455006) can0 5F3#0000007D009B0000
(1681172707.495394) can0 5F0#00850956095603E2
(1681172707.504823) can0 5F1#00BD030982820101
(1681172707.505073) can0 5F2#03E801010462059B
(1681172707.505320) can0 5F3#0000007D009A0000
(1681172707.545697) can0 5F0#00850956095603E0
(1681172707.548493) can0 61A#0000000000000000
(1681172707.555150) can0 5F1#00BD030982820101
(1681172707.555437) can0 5F2#03E801010462059B
(1681172707.555684) can0 5F3#0000007D009A0000
(1681172707.595903) can0 5F0#00850956095603DF
(1681172707.605335) can0 5F1#00BD030982820101
(1681172707.605625) can0 5F2#03E801010462059B
(1681172707.605873) can0 5F3#0000007D009A0000
(1681172707.646076) can0 5F0#00850956095603DC
(1681172707.649116) can0 61A#0000000000000000
(1681172707.655606) can0 5F1#00BD030982820101
(1681172707.655854) can0 5F2#03E801010462059B
(1681172707.656100) can0 5F3#0000007D009A0000
(1681172707.696355) can0 5F0#00850956095603E2
(1681172707.705783) can0 5F1#00BD030982820101
(1681172707.706034) can0 5F2#03E801010462059B
(1681172707.706286) can0 5F3#0000007D009A0000
(1681172707.746656) can0 5F0#00850956095603E0
(1681172707.749201) can0 61A#0000000000000000
(1681172707.756259) can0 5F1#00BD030982820101
(1681172707.756515) can0 5F2#03E801010462059B
(1681172707.756768) can0 5F3#0000007D009B0000
(1681172707.796994) can0 5F0#00850956095603E6
(1681172707.806434) can0 5F1#00BD030982820101
(1681172707.806694) can0 5F2#03E801010462059B
(1681172707.806947) can0 5F3#0000007E009B0000
(1681172707.847428) can0 5F0#00850942094203E0
(1681172707.849729) can0 61A#0000000000000000
(1681172707.856586) can0 5F1#00BD030982820101
(1681172707.856863) can0 5F2#03E801010462059B
(1681172707.857137) can0 5F3#0000007E009C0000
(1681172707.897823) can0 5F0#00850942094203DF
(1681172707.906875) can0 5F1#00BD030982820101
(1681172707.907126) can0 5F2#03E801010462059B
(1681172707.907371) can0 5F3#0000007E009B0000
(1681172707.948245) can0 5F0#00850942094203DB
(1681172707.950026) can0 61A#0000000000000000
(1681172707.957499) can0 5F1#00BD030982820101
(1681172707.957813) can0 5F2#03E801010462059B
(1681172707.958077) can0 5F3#0000007E009B0000
(1681172707.998454) can0 5F0#00850942094203D7
(1681172708.007962) can0 5F1#00BE030982820101
(1681172708.008237) can0 5F2#03E801010462059B
(1681172708.008496) can0 5F3#0000007E009B0000
(1681172708.048643) can0 5F0#00850942094203D9
(1681172708.050407) can0 61A#0000000000000000
(1681172708.058228) can0 5F1#00BE030982820101
(1681172708.058458) can0 5F2#03E801010462059B
(1681172708.058665) can0 5F3#0000007E009B0000
(1681172708.098899) can0 5F0#00850942094203DB
(1681172708.108659) can0 5F1#00BE030982820101
(1681172708.108925) can0 5F2#03E801010462059D
(1681172708.109158) can0 5F3#0000007E009B0000
(1681172708.149337) can0 5F0#00850942094203D4
(1681172708.150473) can0 61A#0000000000000000
(1681172708.158846) can0 5F1#00BE030982820101
(1681172708.159089) can0 5F2#03E801010462059E
(1681172708.159309) can0 5F3#0000007E009C0000
(1681172708.199642) can0 5F0#00850942094203CF
(1681172708.209001) can0 5F1#00BF030982820101
(1681172708.209233) can0 5F2#03E801010462059E
(1681172708.209441) can0 5F3#0000007E009C0000
(1681172708.249948) can0 5F0#00850942094203CA
(1681172708.250568) can0 61A#0000000000000000
(1681172708.259425) can0 5F1#00BE030982820101
(1681172708.259692) can0 5F2#03E801010462059F
(1681172708.259898) can0 5F3#0000007E009C0000
(1681172708.300117) can0 5F0#00850942094203CA
(1681172708.309773) can0 5F1#00BF030982820101
(1681172708.310000) can0 5F2#03E801010462059F
(1681172708.310207) can0 5F3#0000007E009C0000
(1681172708.350684) can0 5F0#00860942094203C4
(1681172708.350954) can0 61A#0000000000000000
(1681172708.360163) can0 5F1#00C0030982820101
(1681172708.360394) can0 5F2#03E801010462059F
(1681172708.360600) can0 5F3#0000007E009D0000
(1681172708.401109) can0 5F0#00860942094203C4
(1681172708.410578) can0 5F1#00C1030982820101
(1681172708.410847) can0 5F2#03E801040462059F
(1681172708.411090) can0 5F3#0000007E009D0000
(1681172708.451058) can0 61A#0000000000000000
(1681172708.451399) can0 5F0#00860951095103C5
(1681172708.460895) can0 5F1#00C0030982820101
(1681172708.461164) can0 5F2#03E801040462059F
(1681172708.461370) can0 5F3#0000007E009D0000
(1681172708.501750) can0 5F0#00860951095103BF
(1681172708.511191) can0 5F1#00C1030982820101
(1681172708.511459) can0 5F2#03E801060462059F
(1681172708.511703) can0 5F3#0000007E009D0000
(1681172708.551287) can0 61A#0000000000000000
(1681172708.551853) can0 5F0#00860951095103BF
(1681172708.561497) can0 5F1#00C1030982820101
(1681172708.561798) can0 5F2#03E801060462059F
(1681172708.562006) can0 5F3#0000007D009E0000
(1681172708.602205) can0 5F0#0086096E096E03B8
(1681172708.611546) can0 5F1#00C2030982820101
(1681172708.611811) can0 5F2#03E801060462059F
(1681172708.612053) can0 5F3#0000007D009D0000
(1681172708.651238) can0 61A#0000000000000000
(1681172708.652461) can0 5F0#0086096E096E03BA
(1681172708.662109) can0 5F1#00C2030982820101
(1681172708.662374) can0 5F2#03E801060462059F
(1681172708.662582) can0 5F3#0000007D009D0000
(1681172708.702933) can0 5F0#0086096E096E03BD
(1681172708.712535) can0 5F1#00C1030982820101
(1681172708.712804) can0 5F2#03E801060462059F
(1681172708.713048) can0 5F3#0000007D009E0000
(1681172708.751469) can0 61A#0000000000000000
(1681172708.753200) can0 5F0#0086096E096E03B8
(1681172708.762713) can0 5F1#00C2030982820101
(1681172708.762982) can0 5F2#03E801090462059F
(1681172708.763228) can0 5F3#0000007D009E0000
(1681172708.803540) can0 5F0#0086096E096E03BA
(1681172708.812886) can0 5F1#00C3030982820101
(1681172708.813153) can0 5F2#03E801090462059F
(1681172708.813395) can0 5F3#0000007D009E0000
(1681172708.851820) can0 61A#0000000000000000
(1681172708.853688) can0 5F0#0086097D097D03B1
(1681172708.863193) can0 5F1#00C3030982820101
(1681172708.863457) can0 5F2#03E801090462059F
(1681172708.863705) can0 5F3#0000007D009F0000
(1681172708.903900) can0 5F0#0086097D097D03B8
(1681172708.913370) can0 5F1#00C3030982820101
(1681172708.913639) can0 5F2#03E801090462059F
(1681172708.913883) can0 5F3#0000007D009F0000
(1681172708.951902) can0 61A#0000000000000000
(1681172708.954162) can0 5F0#0086097D097D03BA
(1681172708.963671) can0 5F1#00C3030982820101
(1681172708.963937) can0 5F2#03E801090462059F
(1681172708.964179) can0 5F3#0000007D00A20000
(1681172709.004391) can0 5F0#0086097D097D03B8
(1681172709.013846) can0 5F1#00C2030982820101
(1681172709.014113) can0 5F2#03E8010B0462059F
(1681172709.014356) can0 5F3#0000007D00A20000
(1681172709.052133) can0 61A#0000000000000000
(1681172709.054384) can0 5F0#0086097D097D03C0
(1681172709.064411) can0 5F1#00C2030982820101
(1681172709.064687) can0 5F2#03E8010B0462059F
(1681172709.064902) can0 5F3#0000007D00A20000
(1681172709.104600) can0 5F0#00860986098603BE
(1681172709.114861) can0 5F1#00C2030982820101
(1681172709.115098) can0 5F2#03E8010B0462059F
(1681172709.115319) can0 5F3#0000007D00A30000
(1681172709.152364) can0 61A#0000000000000000
(1681172709.155116) can0 5F0#00860986098603C2
(1681172709.165401) can0 5F1#00C2030982820101
(1681172709.165697) can0 5F2#03E8010B0462059F
(1681172709.165903) can0 5F3#0000007D00A20000
(1681172709.205594) can0 5F0#00860986098603C5
(1681172709.215826) can0 5F1#00C1030982820101
(1681172709.216088) can0 5F2#03E8010B0462059F
(1681172709.216334) can0 5F3#0000007D00A20000
(1681172709.252718) can0 61A#0000000000000000
(1681172709.256144) can0 5F0#00860986098603C0
(1681172709.266039) can0 5F1#00C1030982820101
(1681172709.266296) can0 5F2#03E8010B0462059F
(1681172709.266532) can0 5F3#0000007D00A20000
(1681172709.306495) can0 5F0#00860986098603C2
(1681172709.316482) can0 5F1#00C2030982820101
(1681172709.316741) can0 5F2#03E8010B0462059F
(1681172709.316977) can0 5F3#0000007D00A20000
(1681172709.353346) can0 61A#0000000000000000
(1681172709.356873) can0 5F0#00870986098603C0
(1681172709.366740) can0 5F1#00C2030982820101
(1681172709.367006) can0 5F2#03E8010B0462059F
(1681172709.367260) can0 5F3#0000007D00A20000
(1681172709.407073) can0 5F0#00870986098603C5
(1681172709.416918) can0 5F1#00C1030982820101
(1681172709.417183) can0 5F2#03E8010B0462059F
(1681172709.417426) can0 5F3#0000007D00A20000
(1681172709.453422) can0 61A#0000000000000000
(1681172709.457502) can0 5F0#00870986098603CC
(1681172709.467342) can0 5F1#00C1030982820101
(1681172709.467605) can0 5F2#03E801080462059F
(1681172709.467853) can0 5F3#0000007D00A10000
(1681172709.507685) can0 5F0#00870978097803CD
(1681172709.517908) can0 5F1#00C1030982820101
(1681172709.518169) can0 5F2#03E801090462059F
(1681172709.518415) can0 5F3#0000007D00A10000
(1681172709.553539) can0 61A#0000000000000000
(1681172709.557889) can0 5F0#00870978097803CC
(1681172709.568366) can0 5F1#00C1030982820101
(1681172709.568621) can0 5F2#03E801080462059F
(1681172709.568860) can0 5F3#0000007D00A10000
(1681172709.608210) can0 5F0#0087097D097D03CE
(1681172709.618655) can0 5F1#00C1030982820101
(1681172709.618907) can0 5F2#03E801080462059F
(1681172709.619146) can0 5F3#0000007D00A10000
(1681172709.653774) can0 61A#0000000000000000
(1681172709.658463) can0 5F0#00870978097803D3
(1681172709.669326) can0 5F1#00C0030982820101
(1681172709.669587) can0 5F2#03E801080462059F
(1681172709.669831) can0 5F3#0000007D00A00000
(1681172709.708884) can0 5F0#00870978097803D5
(1681172709.720110) can0 5F1#00BF030982820101
(1681172709.720355) can0 5F2#03E801060462059F
(1681172709.720597) can0 5F3#0000007D00A10000
(1681172709.753948) can0 61A#0000000000000000
(1681172709.759105) can0 5F0#0087096E096E03D9
(1681172709.770585) can0 5F1#00BE030982820101
(1681172709.770880) can0 5F2#03E801060462059F
(1681172709.771117) can0 5F3#0000007D00A00000
(1681172709.809281) can0 5F0#0087096E096E03D6
(1681172709.820881) can0 5F1#00BE030982820101
(1681172709.821163) can0 5F2#03E801060462059F
(1681172709.821397) can0 5F3#0000007D00A00000
(1681172709.854228) can0 61A#0000000000000000
(1681172709.859417) can0 5F0#0087096E096E03D7
(1681172709.871535) can0 5F1#00BF030982820101
(1681172709.871780) can0 5F2#03E801060462059F
(1681172709.872023) can0 5F3#0000007D00A00000
(1681172709.909760) can0 5F0#0087096E096E03D9
(1681172709.921712) can0 5F1#00BE030982820101
(1681172709.921956) can0 5F2#03E801060462059F
(1681172709.922199) can0 5F3#0000007D009F0000
(1681172709.954286) can0 61A#0000000000000000
(1681172709.959889) can0 5F0#0087096E096E03DD
(1681172709.972018) can0 5F1#00BE030982820101
(1681172709.972273) can0 5F2#03E80103046205A1
(1681172709.972530) can0 5F3#0000007D009F0000
(1681172710.010077) can0 5F0#0087095F095F03DE
(1681172710.022191) can0 5F1#00BD030982820101
(1681172710.022446) can0 5F2#03E80103046205A1
(1681172710.022691) can0 5F3#0000007D009F0000
(1681172710.054242) can0 61A#0000000000000000
(1681172710.060635) can0 5F0#0087095F095F03E2
(1681172710.072494) can0 5F1#00BD030982820101
(1681172710.072739) can0 5F2#03E80103046205A2
(1681172710.072991) can0 5F3#0000007D009F0000
(1681172710.111062) can0 5F0#0087095F095F03DE
(1681172710.122933) can0 5F1#00BC030982820101
(1681172710.123188) can0 5F2#03E80103046205A3
(1681172710.123442) can0 5F3#0000007D009F0000
(1681172710.154350) can0 61A#0000000000000000
(1681172710.161242) can0 5F0#0087095F095F03E4
(1681172710.173405) can0 5F1#00BC030982820101
(1681172710.173654) can0 5F2#03E80103046205A3
(1681172710.173880) can0 5F3#0000007D009F0000
(1681172710.211552) can0 5F0#0087095F095F03E4
(1681172710.223592) can0 5F1#00BC030982820101
(1681172710.223843) can0 5F2#03E80103046205A3
(1681172710.224071) can0 5F3#0000007D009E0000
(1681172710.254438) can0 61A#0000000000000000
(1681172710.262102) can0 5F0#0087095F095F03E9
(1681172710.273897) can0 5F1#00BC030982820101
(1681172710.274145) can0 5F2#03E80103046205A3
(1681172710.274376) can0 5F3#0000007D009D0000
(1681172710.312280) can0 5F0#0087095F095F03E7
(1681172710.324191) can0 5F1#00BB030982820101
(1681172710.324454) can0 5F2#03E80101046205A3
(1681172710.324683) can0 5F3#0000007D009E0000
(1681172710.354652) can0 61A#0000000000000000
(1681172710.362708) can0 5F0#00880956095603EB
(1681172710.374509) can0 5F1#00BA030982820101
(1681172710.374763) can0 5F2#03E80101046205A3
(1681172710.374986) can0 5F3#0000007D009E0000
(1681172710.413271) can0 5F0#00880956095603E9
(1681172710.425079) can0 5F1#00BA030982820101
(1681172710.425324) can0 5F2#03E80101046205A3
(1681172710.425577) can0 5F3#0000007D009E0000
(1681172710.454759) can0 61A#0000000000000000
(1681172710.463603) can0 5F0#00880956095603E4
(1681172710.475146) can0 5F1#00BB030982820101
(1681172710.475417) can0 5F2#03E80101046205A3
(1681172710.475661) can0 5F3#0000007D009E0000
(1681172710.514045) can0 5F0#00880956095603E8
(1681172710.525462) can0 5F1#00BB030982820101
(1681172710.525778) can0 5F2#03E80101046205A3
(1681172710.526020) can0 5F3#0000007D009E0000
(1681172710.555017) can0 61A#0000000000000000
(1681172710.564337) can0 5F0#00880956095603EA
(1681172710.575872) can0 5F1#00BB030982820101
(1681172710.576135) can0 5F2#03E800FE046205A3
(1681172710.576376) can0 5F3#0000007D009E0000
(1681172710.614399) can0 5F0#00880947094703EA
(1681172710.626039) can0 5F1#00BB030982820101
(1681172710.626297) can0 5F2#03E800FF046205A3
(1681172710.626531) can0 5F3#0000007D009E0000
(1681172710.655502) can0 61A#0000000000000000
(1681172710.664564) can0 5F0#0088094C094C03EA
(1681172710.676339) can0 5F1#00BB030982820101
(1681172710.676596) can0 5F2#03E800FE046205A3
(1681172710.676830) can0 5F3#0000007D009E0000
(1681172710.714742) can0 5F0#00880947094703EA
(1681172710.726641) can0 5F1#00BB030982820101
(1681172710.726906) can0 5F2#03E800FE046205A3
(1681172710.727141) can0 5F3#0000007D009E0000
(1681172710.755709) can0 61A#0000000000000000
(1681172710.764912) can0 5F0#00880947094703E6
(1681172710.777075) can0 5F1#00BB030982820101
(1681172710.777333) can0 5F2#03E800FE046205A3
(1681172710.777575) can0 5F3#0000007D009E0000
(1681172710.815092) can0 5F0#00880947094703E2
(1681172710.827250) can0 5F1#00BB030982820101
(1681172710.827506) can0 5F2#03E800FE046205A3
(1681172710.827741) can0 5F3#0000007D009D0000
(1681172710.855819) can0 61A#0000000000000000
(1681172710.865395) can0 5F0#00880947094703E2
(1681172710.877952) can0 5F1#00BB030982820101
(1681172710.878211) can0 5F2#03E800FE046205A3
(1681172710.878458) can0 5F3#0000007D009D0000
(1681172710.915702) can0 5F0#00880947094703E6
(1681172710.928375) can0 5F1#00BC030982820101
(1681172710.928633) can0 5F2#03E800FE046205A3
(1681172710.928870) can0 5F3#0000007D009D0000
(1681172710.955926) can0 61A#0000000000000000
(1681172710.965814) can0 5F0#00880947094703E1
(1681172710.978618) can0 5F1#00BB030982820101
(1681172710.978854) can0 5F2#03E800FE046205A3
(1681172710.979069) can0 5F3#0000007D009D0000
(1681172711.015996) can0 5F0#00880947094703DE
(1681172711.029176) can0 5F1#00BC030982820101
(1681172711.029410) can0 5F2#03E800FF046205A3
(1681172711.029628) can0 5F3#0000007D009D0000
(1681172711.055945) can0 61A#0000000000000000
(1681172711.066476) can0 5F0#00880947094703D8
(1681172711.079536) can0 5F1#00BC030982820101
(1681172711.079797) can0 5F2#03E800FF046205A3
(1681172711.080039) can0 5F3#0000007D009C0000
(1681172711.116654) can0 5F0#0088094C094C03D8
(1681172711.129965) can0 5F1#00BC030982820101
(1681172711.130222) can0 5F2#03E800FF046205A3
(1681172711.130464) can0 5F3#0000007D009C0000
(1681172711.156223) can0 61A#0000000000000000
(1681172711.166787) can0 5F0#0088094C094C03DC
(1681172711.180103) can0 5F1#00BD030982820101
(1681172711.180365) can0 5F2#03E800FF046205A3
(1681172711.180608) can0 5F3#0000007D009C0000
(1681172711.217106) can0 5F0#0088094C094C03DB
(1681172711.230411) can0 5F1#00BC030982820101
(1681172711.230674) can0 5F2#03E800FF046205A3
(1681172711.230919) can0 5F3#0000007D009C0000
(1681172711.256399) can0 61A#0000000000000000
(1681172711.267275) can0 5F0#0088094C094C03DA
(1681172711.280715) can0 5F1#00BC030982820101
(1681172711.280980) can0 5F2#03E800FF046205A5
(1681172711.281222) can0 5F3#0000007D009C0000
(1681172711.317576) can0 5F0#0089094C094C03D5
(1681172711.330887) can0 5F1#00BC030982820101
(1681172711.331150) can0 5F2#03E80101046205A5
(1681172711.331391) can0 5F3#0000007D009C0000
(1681172711.356517) can0 61A#0000000000000000
(1681172711.367747) can0 5F0#0089094C094C03D2
(1681172711.381579) can0 5F1#00BD030982820101
(1681172711.381843) can0 5F2#03E80101046205A6
(1681172711.382085) can0 5F3#0000007C009D0000
(1681172711.417931) can0 5F0#00890956095603CA
(1681172711.431894) can0 5F1#00BE030982820101
(1681172711.432158) can0 5F2#03E80101046205A7
(1681172711.432363) can0 5F3#0000007D009C0000
(1681172711.456611) can0 61A#0000000000000000
(1681172711.468108) can0 5F0#0089096A096A03D0
(1681172711.482186) can0 5F1#00BD030982820101
(1681172711.482447) can0 5F2#03E80101046205A7
(1681172711.482689) can0 5F3#0000007D009C0000
(1681172711.518286) can0 5F0#00890956095603D6
(1681172711.532497) can0 5F1#00BC030982820101
(1681172711.532756) can0 5F2#03E80101046205A7
(1681172711.532998) can0 5F3#0000007C009B0000
(1681172711.556715) can0 61A#0000000000000000
(1681172711.568457) can0 5F0#0089096A096A03D8
(1681172711.582676) can0 5F1#00BD030982820101
(1681172711.582933) can0 5F2#03E80104046205A7
(1681172711.583176) can0 5F3#0000007C009C0000
(1681172711.618765) can0 5F0#0089096A096A03D5
(1681172711.632976) can0 5F1#00BD030982820101
(1681172711.633240) can0 5F2#03E80103046205A7
(1681172711.633486) can0 5F3#0000007C009C0000
(1681172711.657309) can0 61A#0000000000000000
(1681172711.669062) can0 5F0#00890979097903D1
(1681172711.683410) can0 5F1#00BE030982820101
(1681172711.683673) can0 5F2#03E80103046205A7
(1681172711.683914) can0 5F3#0000007D009C0000
(1681172711.719887) can0 5F0#0089095F095F03D4
(1681172711.733589) can0 5F1#00BE030982820101
(1681172711.733852) can0 5F2#03E80103046205A7
(1681172711.734057) can0 5F3#0000007D009C0000
(1681172711.757435) can0 61A#0000000000000000
(1681172711.770066) can0 5F0#0089095F095F03D4
(1681172711.783761) can0 5F1#00BE030982820101
(1681172711.784026) can0 5F2#03E80103046205A7
(1681172711.784267) can0 5F3#0000007D009D0000
(1681172711.820241) can0 5F0#0089095F095F03D5
(1681172711.833938) can0 5F1#00BD030982820101
(1681172711.834203) can0 5F2#03E80104046205A7
(1681172711.834408) can0 5F3#0000007C009D0000
(1681172711.857643) can0 61A#0000000000000000
(1681172711.870540) can0 5F0#0089095F095F03D3
(1681172711.884491) can0 5F1#00BD030982820101
(1681172711.884749) can0 5F2#03E80103046205A7
(1681172711.884991) can0 5F3#0000007D009D0000
(1681172711.920970) can0 5F0#00890979097903D2
(1681172711.934672) can0 5F1#00BD030982820101
(1681172711.934934) can0 5F2#03E80104046205A7
(1681172711.935178) can0 5F3#0000007D009E0000
(1681172711.957783) can0 61A#0000000000000000
(1681172711.971401) can0 5F0#0089095F095F03D9
(1681172711.984986) can0 5F1#00BD030982820101
(1681172711.985219) can0 5F2#03E80104046205A7
(1681172711.985425) can0 5F3#0000007D009E0000
(1681172712.021454) can0 5F0#00890965096503DF
(1681172712.035154) can0 5F1#00BD030982820101
(1681172712.035416) can0 5F2#03E80103046205A7
(1681172712.035658) can0 5F3#0000007D009E0000
(1681172712.057826) can0 61A#0000000000000000
(1681172712.071628) can0 5F0#0089095F095F03DF
(1681172712.085589) can0 5F1#00BC030982820101
(1681172712.085850) can0 5F2#03E80103046205A7
(1681172712.086090) can0 5F3#0000007D009E0000
(1681172712.122195) can0 5F0#0089095F095F03DF
(1681172712.135890) can0 5F1#00BC030982820101
(1681172712.136152) can0 5F2#03E80103046205A7
(1681172712.136395) can0 5F3#0000007D009E0000
(1681172712.158181) can0 61A#0000000000000000
(1681172712.172265) can0 5F0#0089095F095F03DA
(1681172712.186229) can0 5F1#00BC030982820101
(1681172712.186498) can0 5F2#03E80103046205A7
(1681172712.186738) can0 5F3#0000007D009D0000
(1681172712.222451) can0 5F0#0089095F095F03E1
(1681172712.236525) can0 5F1#00BC030982820101
(1681172712.236782) can0 5F2#03E80103046205A7
(1681172712.237016) can0 5F3#0000007D009D0000
(1681172712.258301) can0 61A#0000000000000000
(1681172712.272849) can0 5F0#0089095F095F03DF
(1681172712.286789) can0 5F1#00BC030982820101
(1681172712.287052) can0 5F2#03E80103046205A7
(1681172712.287297) can0 5F3#0000007D009E0000
(1681172712.323409) can0 5F0#008A095F095F03E3
(1681172712.336975) can0 5F1#00BD030982820101
(1681172712.337240) can0 5F2#03E80103046205A7
(1681172712.337483) can0 5F3#0000007D009D0000
(1681172712.358631) can0 61A#0000000000000000
(1681172712.373837) can0 5F0#008A095F095F03DC
(1681172712.387141) can0 5F1#00BC030982820101
(1681172712.387400) can0 5F2#03E80101046205A7
(1681172712.387644) can0 5F3#0000007D009E0000
(1681172712.424019) can0 5F0#008A0956095603D9
(1681172712.437575) can0 5F1#00BC030982820101
(1681172712.437834) can0 5F2#03E80101046205A7
(1681172712.438078) can0 5F3#0000007D009D0000
(1681172712.458856) can0 61A#0000000000000000
(1681172712.474339) can0 5F0#008A0956095603D8
(1681172712.487743) can0 5F1#00BC030982820101
(1681172712.488000) can0 5F2#03E80101046205A7
(1681172712.488242) can0 5F3#0000007D009E0000
(1681172712.524633) can0 5F0#008A0956095603D9
(1681172712.538045) can0 5F1#00BC030982820101
(1681172712.538304) can0 5F2#03E80101046205A7
(1681172712.538665) can0 5F3#0000007D009C0000
(1681172712.559218) can0 61A#0000000000000000
(1681172712.574940) can0 5F0#008A0956095603DB
(1681172712.588330) can0 5F1#00BC030982820101
(1681172712.588586) can0 5F2#03E80101046205A7
(1681172712.588835) can0 5F3#0000007D009D0000
(1681172712.625127) can0 5F0#008A0956095603E0
(1681172712.638640) can0 5F1#00BC030982820101
(1681172712.638897) can0 5F2#03E80101046205A7
(1681172712.639148) can0 5F3#0000007D009B0000
(1681172712.659430) can0 61A#0000000000000000
(1681172712.675411) can0 5F0#008A0956095603E0
(1681172712.688928) can0 5F1#00BB030982820101
(1681172712.689180) can0 5F2#03E80101046205A9
(1681172712.689428) can0 5F3#0000007D009C0000
(1681172712.726095) can0 5F0#008A0956095603DE
(1681172712.739253) can0 5F1#00BC030982820101
(1681172712.739511) can0 5F2#03E80101046205AA
(1681172712.739771) can0 5F3#0000007D009C0000
(1681172712.759768) can0 61A#0000000000000000
(1681172712.776392) can0 5F0#008A0956095603DB
(1681172712.789420) can0 5F1#00BB030982820101
(1681172712.789696) can0 5F2#03E80101046205AB
(1681172712.789944) can0 5F3#0000007D009C0000
(1681172712.826830) can0 5F0#008A0956095603E1
(1681172712.839867) can0 5F1#00BB030982820101
(1681172712.840140) can0 5F2#03E80101046205AB
(1681172712.840406) can0 5F3#0000007D009C0000
(1681172712.859880) can0 61A#0000000000000000
(1681172712.877383) can0 5F0#008A094B094B03DF
(1681172712.890023) can0 5F1#00BB030982820101
(1681172712.890277) can0 5F2#03E80101046205AB
(1681172712.890519) can0 5F3#0000007D009D0000
(1681172712.927957) can0 5F0#008A094B094B03E5
(1681172712.940212) can0 5F1#00BB030982820101
(1681172712.940472) can0 5F2#03E80101046205AB
(1681172712.940730) can0 5F3#0000007D009D0000
(1681172712.960215) can0 61A#0000000000000000
(1681172712.978165) can0 5F0#008A094B094B03E8
(1681172712.990588) can0 5F1#00BA030982820101
(1681172712.990860) can0 5F2#03E80101046205AB
(1681172712.991111) can0 5F3#0000007D009D0000
(1681172713.028337) can0 5F0#008A094B094B03E9
(1681172713.040767) can0 5F1#00BA030982820101
(1681172713.041039) can0 5F2#03E80101046205AB
(1681172713.041298) can0 5F3#0000007D009D0000
(1681172713.060490) can0 61A#0000000000000000
(1681172713.078601) can0 5F0#008A094B094B03E5
(1681172713.091040) can0 5F1#00BA030982820101
(1681172713.091285) can0 5F2#03E80101046205AB
(1681172713.091507) can0 5F3#0000007D009D0000
(1681172713.129035) can0 5F0#008A094B094B03E3
(1681172713.141218) can0 5F1#00BB030982820101
(1681172713.141466) can0 5F2#03E80101046205AB
(1681172713.141733) can0 5F3#0000007D009D0000
(1681172713.160806) can0 61A#0000000000000000
(1681172713.179249) can0 5F0#008A094B094B03E4
(1681172713.191546) can0 5F1#00BB030982820101
(1681172713.191823) can0 5F2#03E80101046205AB
(1681172713.192082) can0 5F3#0000007D009D0000
(1681172713.229555) can0 5F0#008A094B094B03E6
(1681172713.241753) can0 5F1#00BB030982820101
(1681172713.242021) can0 5F2#03E80101046205AB
(1681172713.242267) can0 5F3#0000007D009C0000
(1681172713.261066) can0 61A#0000000000000000
(1681172713.279694) can0 5F0#008A094B094B03E6
(1681172713.292373) can0 5F1#00BB030982820101
(1681172713.292606) can0 5F2#03E80101046205AB
(1681172713.292812) can0 5F3#0000007D009D0000
(1681172713.329993) can0 5F0#008B094B094B03E1
(1681172713.342673) can0 5F1#00BB030982820101
(1681172713.342937) can0 5F2#03E80101046205AB
(1681172713.343143) can0 5F3#0000007D009D0000
(1681172713.361131) can0 61A#0000000000000000
(1681172713.380168) can0 5F0#008B094B094B03D6
(1681172713.392846) can0 5F1#00BC030982820101
(1681172713.393111) can0 5F2#03E80101046205AB
(1681172713.393357) can0 5F3#0000007D009D0000
(1681172713.430727) can0 5F0#008B094B094B03D0
(1681172713.443154) can0 5F1#00BD030982820101
(1681172713.443380) can0 5F2#03E80101046205AB
(1681172713.443586) can0 5F3#0000007D009D0000
(1681172713.461594) can0 61A#0000000000000000
(1681172713.481031) can0 5F0#008B094B094B03CE
(1681172713.493327) can0 5F1#00BD030982820101
(1681172713.493599) can0 5F2#03E80101046205AB
(1681172713.493801) can0 5F3#0000007D009D0000
(1681172713.531458) can0 5F0#008B094B094B03D3
(1681172713.543499) can0 5F1#00BC030982820101
(1681172713.543769) can0 5F2#03E80101046205AB
(1681172713.543977) can0 5F3#0000007D009D0000
(1681172713.561957) can0 61A#0000000000000000
(1681172713.582014) can0 5F0#008B094B094B03D3
(1681172713.593810) can0 5F1#00BC030982820101
(1681172713.594038) can0 5F2#03E80101046205AB
(1681172713.594244) can0 5F3#0000007D009D0000
(1681172713.632325) can0 5F0#008B094B094B03D0
(1681172713.644235) can0 5F1#00BD030982820101
(1681172713.644499) can0 5F2#03E80101046205AB
(1681172713.644742) can0 5F3#0000007D009D0000
(1681172713.662159) can0 61A#0000000000000000
(1681172713.682623) can0 5F0#008B094B094B03CA
(1681172713.694281) can0 5F1#00BD030982820101
(1681172713.694548) can0 5F2#03E80101046205AB
(1681172713.694789) can0 5F3#0000007D009D0000
(1681172713.732805) can0 5F0#008B094B094B03C6
(1681172713.744593) can0 5F1#00BE030982820101
(1681172713.744816) can0 5F2#03E80101046205AB
(1681172713.745022) can0 5F3#0000007D009D0000
(1681172713.762535) can0 61A#0000000000000000
(1681172713.783112) can0 5F0#008B094B094B03CB
(1681172713.794901) can0 5F1#00BF030982820101
(1681172713.795127) can0 5F2#03E80104046205AB
(1681172713.795332) can0 5F3#0000007D009D0000
(1681172713.833284) can0 5F0#008B0959095903C5
(1681172713.845197) can0 5F1#00BF030982820101
(1681172713.845462) can0 5F2#03E80104046205AB
(1681172713.845697) can0 5F3#0000007D009D0000
(1681172713.862628) can0 61A#0000000000000000
(1681172713.883465) can0 5F0#008B0959095903BF
(1681172713.895500) can0 5F1#00BF030982820101
(1681172713.895768) can0 5F2#03E80104046205AB
(1681172713.895973) can0 5F3#0000007D009C0000
(1681172713.934154) can0 5F0#008B0959095903BA
(1681172713.945808) can0 5F1#00BF030982820101
(1681172713.946033) can0 5F2#03E80106046205AB
(1681172713.946239) can0 5F3#0000007D009D0000
(1681172713.962726) can0 61A#0000000000000000
(1681172713.984326) can0 5F0#008B0959095903BA
(1681172713.996114) can0 5F1#00C0030982820101
(1681172713.996340) can0 5F2#03E80106046205AB
(1681172713.996546) can0 5F3#0000007C009F0000
(1681172714.034499) can0 5F0#008B0977097703C0
(1681172714.046290) can0 5F1#00BF030982820101
(1681172714.046515) can0 5F2#03E80106046205AB
(1681172714.046721) can0 5F3#0000007C009E0000
(1681172714.062949) can0 61A#0000000000000000
(1681172714.085068) can0 5F0#008B0977097703C5
(1681172714.096463) can0 5F1#00BF030982820101
(1681172714.096690) can0 5F2#03E80106046205AD
(1681172714.096980) can0 5F3#0000007C009E0000
(1681172714.135619) can0 5F0#008B0977097703C8
(1681172714.146769) can0 5F1#00C0030982820101
(1681172714.146996) can0 5F2#03E80109046205AD
(1681172714.147201) can0 5F3#0000007C009E0000
(1681172714.163297) can0 61A#0000000000000000
(1681172714.185800) can0 5F0#008B0977097703C8
(1681172714.196941) can0 5F1#00BF030982820101
(1681172714.197180) can0 5F2#03E80108046205AE
(1681172714.197385) can0 5F3#0000007C009F0000
(1681172714.236102) can0 5F0#008B0986098603C6
(1681172714.247251) can0 5F1#00C0030982820101
(1681172714.247476) can0 5F2#03E80108046205AF
(1681172714.247685) can0 5F3#0000007C009F0000
(1681172714.263394) can0 61A#0000000000000000
(1681172714.286413) can0 5F0#008B0981098103CB
(1681172714.297714) can0 5F1#00BF030982820101
(1681172714.297937) can0 5F2#03E80108046205AF
(1681172714.298143) can0 5F3#0000007C009E0000
(1681172714.336451) can0 5F0#008C0981098103D1
(1681172714.347852) can0 5F1#00BF030982820101
(1681172714.348114) can0 5F2#03E80108046205AF
(1681172714.348356) can0 5F3#0000007C00A00000
(1681172714.363732) can0 61A#0000000000000000
(1681172714.386634) can0 5F0#008C0981098103D2
(1681172714.398162) can0 5F1#00BE030982820101
(1681172714.398389) can0 5F2#03E80108046205AF
(1681172714.398595) can0 5F3#0000007C009F0000
(1681172714.436810) can0 5F0#008C0981098103CF
(1681172714.448463) can0 5F1#00BE030982820101
(1681172714.448688) can0 5F2#03E80108046205AF
(1681172714.448893) can0 5F3#0000007C009F0000
(1681172714.464086) can0 61A#0000000000000000
(1681172714.487114) can0 5F0#008C0981098103D2
(1681172714.499147) can0 5F1#00BE030982820101
(1681172714.499410) can0 5F2#03E80108046205AF
(1681172714.499651) can0 5F3#0000007C00A00000
(1681172714.537417) can0 5F0#008C0981098103D9
(1681172714.549455) can0 5F1#00BE030982820101
(1681172714.549692) can0 5F2#03E80108046205AF
(1681172714.549899) can0 5F3#0000007C00A00000
(1681172714.564195) can0 61A#0000000000000000
(1681172714.587591) can0 5F0#008C0981098103DE
(1681172714.599755) can0 5F1#00BC030982820101
(1681172714.600020) can0 5F2#03E80106046205AF
(1681172714.600265) can0 5F3#0000007C00A00000
(1681172714.637767) can0 5F0#008C0977097703E3
(1681172714.650059) can0 5F1#00BC030982820101
(1681172714.650322) can0 5F2#03E80106046205AF
(1681172714.650564) can0 5F3#0000007C00A00000
(1681172714.664545) can0 61A#0000000000000000
(1681172714.687936) can0 5F0#008C0977097703EA
(1681172714.700485) can0 5F1#00BB030982820101
(1681172714.700750) can0 5F2#03E80103046205AF
(1681172714.700992) can0 5F3#0000007D00A00000
(1681172714.738249) can0 5F0#008C0955095503E8
(1681172714.750789) can0 5F1#00BA030982820101
(1681172714.751053) can0 5F2#03E80103046205AF
(1681172714.751295) can0 5F3#0000007D00A00000
(1681172714.764766) can0 61A#0000000000000000
(1681172714.788676) can0 5F0#008C0955095503F0
(1681172714.800975) can0 5F1#00B9030982820101
(1681172714.801200) can0 5F2#03E80101046205AF
(1681172714.801405) can0 5F3#0000007D00A00000
(1681172714.839114) can0 5F0#008C0958095803EE
(1681172714.851147) can0 5F1#00BA030982820101
(1681172714.851411) can0 5F2#03E80101046205AF
(1681172714.851616) can0 5F3#0000007D00A00000
(1681172714.865120) can0 61A#0000000000000000
(1681172714.889423) can0 5F0#008C094E094E03EC
(1681172714.901319) can0 5F1#00BA030982820101
(1681172714.901586) can0 5F2#03E80101046205AF
(1681172714.901846) can0 5F3#0000007D009E0000
(1681172714.939720) can0 5F0#008C094E094E03EC
(1681172714.951751) can0 5F1#00BA030982820101
(1681172714.952015) can0 5F2#03E800FE046205AF
(1681172714.952256) can0 5F3#0000007D009E0000
(1681172714.965346) can0 61A#0000000000000000
(1681172714.990168) can0 5F0#008C093D093D03EE
(1681172715.001928) can0 5F1#00BA030982820101
(1681172715.002189) can0 5F2#03E800FE046205AF
(1681172715.002431) can0 5F3#0000007D009E0000
(1681172715.040335) can0 5F0#008C093D093D03ED
(1681172715.052099) can0 5F1#00BA030982820101
(1681172715.052363) can0 5F2#03E800FE046205AF
(1681172715.052605) can0 5F3#0000007D009E0000
(1681172715.065555) can0 61A#0000000000000000
(1681172715.090653) can0 5F0#008C093D093D03E8
(1681172715.102394) can0 5F1#00BA030982820101
(1681172715.102653) can0 5F2#03E800FE046205AF
(1681172715.102895) can0 5F3#0000007D009D0000
(1681172715.140824) can0 5F0#008C093D093D03EA
(1681172715.152830) can0 5F1#00BA030982820101
(1681172715.153097) can0 5F2#03E800FE046205AF
(1681172715.153339) can0 5F3#0000007D009D0000
(1681172715.165697) can0 61A#0000000000000000
(1681172715.190998) can0 5F0#008C093D093D03E7
(1681172715.203365) can0 5F1#00BA030982820101
(1681172715.203616) can0 5F2#03E800FE046205AF
(1681172715.203857) can0 5F3#0000007D009D0000
(1681172715.241421) can0 5F0#008C093D093D03EC
(1681172715.253687) can0 5F1#00BB030982820101
(1681172715.253935) can0 5F2#03E800FE046205AF
(1681172715.254176) can0 5F3#0000007D009D0000
(1681172715.265748) can0 61A#0000000000000000
(1681172715.291668) can0 5F0#008C093D093D03E1
(1681172715.303880) can0 5F1#00BB030982820101
(1681172715.304164) can0 5F2#03E800FE046205AF
(1681172715.304397) can0 5F3#0000007D009C0000
(1681172715.341806) can0 5F0#008D093D093D03DD
(1681172715.354038) can0 5F1#00BB030982820101
(1681172715.354318) can0 5F2#03E800FE046205AF
(1681172715.354593) can0 5F3#0000007D009B0000
(1681172715.366126) can0 61A#0000000000000000
(1681172715.392354) can0 5F0#008D093D093D03D5
(1681172715.404211) can0 5F1#00BC030982820101
(1681172715.404488) can0 5F2#03E800FF046205AF
(1681172715.404765) can0 5F3#0000007D009C0000
(1681172715.442669) can0 5F0#008D093D093D03D0
(1681172715.454519) can0 5F1#00BD030982820101
(1681172715.454800) can0 5F2#03E800FF046205AF
(1681172715.455075) can0 5F3#0000007D009C0000
(1681172715.466349) can0 61A#0000000000000000
(1681172715.492968) can0 5F0#008D0942094203D2
(1681172715.504946) can0 5F1#00BC030982820101
(1681172715.505235) can0 5F2#03E800FF046205AF
(1681172715.505480) can0 5F3#0000007D009C0000
(1681172715.543024) can0 5F0#008D0942094203D3
(1681172715.555264) can0 5F1#00BD030982820101
(1681172715.555546) can0 5F2#03E80101046205B1
(1681172715.555781) can0 5F3#0000007D009D0000
(1681172715.566464) can0 61A#0000000000000000
(1681172715.593281) can0 5F0#008D094B094B03D3
(1681172715.605530) can0 5F1#00BC030982820101
(1681172715.605775) can0 5F2#03E80101046205B1
(1681172715.606018) can0 5F3#0000007D009C0000
(1681172715.643587) can0 5F0#008D094B094B03D1
(1681172715.655836) can0 5F1#00BC030982820101
(1681172715.656089) can0 5F2#03E80101046205B2
(1681172715.656344) can0 5F3#0000007D009C0000
(1681172715.666636) can0 61A#0000000000000000
(1681172715.693769) can0 5F0#008D094B094B03CB
(1681172715.706014) can0 5F1#00BD030982820101
(1681172715.706261) can0 5F2#03E80101046205B3
(1681172715.706506) can0 5F3#0000007D009C0000
(1681172715.744062) can0 5F0#008D094B094B03CB
(1681172715.756634) can0 5F1#00BD030982820101
(1681172715.756871) can0 5F2#03E80101046205B3
(1681172715.757092) can0 5F3#0000007D009C0000
(1681172715.766979) can0 61A#0000000000000000
(1681172715.794371) can0 5F0#008D094B094B03CD
(1681172715.806926) can0 5F1#00BF030982820101
(1681172715.807168) can0 5F2#03E80104046205B3
(1681172715.807390) can0 5F3#0000007D009C0000
(1681172715.844537) can0 5F0#008D0959095903C7
(1681172715.857117) can0 5F1#00BE030982820101
(1681172715.857368) can0 5F2#03E80104046205B3
(1681172715.857583) can0 5F3#0000007D009C0000
(1681172715.867215) can0 61A#0000000000000000
(1681172715.894846) can0 5F0#008D0959095903C6
(1681172715.907414) can0 5F1#00BE030982820101
(1681172715.907646) can0 5F2#03E80104046205B3
(1681172715.907865) can0 5F3#0000007D009C0000
(1681172715.945021) can0 5F0#008D0959095903C4
(1681172715.957589) can0 5F1#00BE030982820101
(1681172715.957831) can0 5F2#03E80106046205B3
(1681172715.958058) can0 5F3#0000007D009C0000
(1681172715.967412) can0 61A#0000000000000000
(1681172715.995211) can0 5F0#008D0959095903C8
(1681172716.007899) can0 5F1#00BE030982820101
(1681172716.008138) can0 5F2#03E80106046205B3
(1681172716.008359) can0 5F3#0000007D009D0000
(1681172716.045507) can0 5F0#008D0963096303CB
(1681172716.058199) can0 5F1#00BE030982820101
(1681172716.058430) can0 5F2#03E80106046205B3
(1681172716.058636) can0 5F3#0000007D009D0000
(1681172716.067631) can0 61A#0000000000000000
(1681172716.095820) can0 5F0#008D0963096303CD
(1681172716.108372) can0 5F1#00BE030982820101
(1681172716.108617) can0 5F2#03E80106046205B3
(1681172716.108837) can0 5F3#0000007D009D0000
(1681172716.146241) can0 5F0#008D0963096303CC
(1681172716.158796) can0 5F1#00BE030982820101
(1681172716.159022) can0 5F2#03E80106046205B3
(1681172716.159228) can0 5F3#0000007D009E0000
(1681172716.167716) can0 61A#0000000000000000
(1681172716.196417) can0 5F0#008D0963096303C7
(1681172716.209227) can0 5F1#00BE030982820101
(1681172716.209456) can0 5F2#03E80106046205B3
(1681172716.209706) can0 5F3#0000007D009E0000
(1681172716.246723) can0 5F0#008D0963096303C9
(1681172716.259399) can0 5F1#00BE030982820101
(1681172716.259625) can0 5F2#03E80106046205B3
(1681172716.259832) can0 5F3#0000007D009E0000
(1681172716.267954) can0 61A#0000000000000000
(1681172716.296926) can0 5F0#008D0963096303C5
(1681172716.309783) can0 5F1#00BE030982820101
(1681172716.310043) can0 5F2#03E80106046205B3
(1681172716.310279) can0 5F3#0000007D009E0000
(1681172716.347108) can0 5F0#008E0963096303CC
(1681172716.360173) can0 5F1#00BE030982820101
(1681172716.360431) can0 5F2#03E80106046205B3
(1681172716.360667) can0 5F3#0000007D009E0000
(1681172716.368210) can0 61A#0000000000000000
(1681172716.397503) can0 5F0#008E0963096303D1
(1681172716.410318) can0 5F1#00BD030982820101
(1681172716.410549) can0 5F2#03E80106046205B3
(1681172716.410755) can0 5F3#0000007D009E0000
(1681172716.447809) can0 5F0#008E0963096303CF
(1681172716.460493) can0 5F1#00BD030982820101
(1681172716.460722) can0 5F2#03E80106046205B3
(1681172716.460928) can0 5F3#0000007D009F0000
(1681172716.468782) can0 61A#0000000000000000
(1681172716.497985) can0 5F0#008E0963096303D2
(1681172716.510789) can0 5F1#00BD030982820101
(1681172716.511054) can0 5F2#03E80106046205B3
(1681172716.511295) can0 5F3#0000007D009F0000
(1681172716.548415) can0 5F0#008E0963096303CE
(1681172716.560966) can0 5F1#00BE030982820101
(1681172716.561197) can0 5F2#03E80106046205B3
(1681172716.561403) can0 5F3#0000007D009F0000
(1681172716.569134) can0 61A#0000000000000000
(1681172716.598850) can0 5F0#008E0963096303D3
(1681172716.611525) can0 5F1#00BD030982820101
(1681172716.611788) can0 5F2#03E80106046205B3
(1681172716.612030) can0 5F3#0000007E009F0000
(1681172716.649277) can0 5F0#008E094F094F03D2
(1681172716.661829) can0 5F1#00BD030982820101
(1681172716.662056) can0 5F2#03E80106046205B3
(1681172716.662262) can0 5F3#0000007D009F0000
(1681172716.669228) can0 61A#0000000000000000
(1681172716.699714) can0 5F0#008E0963096303D2
(1681172716.712132) can0 5F1#00BD030982820101
(1681172716.712399) can0 5F2#03E80106046205B3
(1681172716.712643) can0 5F3#0000007D009F0000
(1681172716.750013) can0 5F0#008E0963096303D1
(1681172716.762311) can0 5F1#00BD030982820101
(1681172716.762538) can0 5F2#03E80106046205B3
(1681172716.762743) can0 5F3#0000007D009F0000
(1681172716.769566) can0 61A#0000000000000000
(1681172716.800220) can0 5F0#008E0963096303D1
(1681172716.812648) can0 5F1#00BD030982820101
(1681172716.812908) can0 5F2#03E80106046205B3
(1681172716.813143) can0 5F3#0000007D00A10000
(1681172716.850398) can0 5F0#008E0963096303D6
(1681172716.862825) can0 5F1#00BD030982820101
(1681172716.863082) can0 5F2#03E80106046205B3
(1681172716.863319) can0 5F3#0000007D00A00000
(1681172716.869817) can0 61A#0000000000000000
(1681172716.900669) can0 5F0#008E0963096303D9
(1681172716.913342) can0 5F1#00BD030982820101
(1681172716.913596) can0 5F2#03E80106046205B3
(1681172716.913840) can0 5F3#0000007D00A00000
(1681172716.950968) can0 5F0#008E0963096303DA
(1681172716.963519) can0 5F1#00BC030982820101
(1681172716.963783) can0 5F2#03E80106046205B3
(1681172716.964025) can0 5F3#0000007D00A00000
(1681172716.969902) can0 61A#0000000000000000
(1681172717.001314) can0 5F0#008E0963096303DA
(1681172717.013862) can0 5F1#00BC030982820101
(1681172717.014119) can0 5F2#03E80106046205B3
(1681172717.014354) can0 5F3#0000007D00A00000
(1681172717.051616) can0 5F0#008E0963096303D5
(1681172717.064177) can0 5F1#00BC030982820101
(1681172717.064439) can0 5F2#03E80106046205B3
(1681172717.064676) can0 5F3#0000007D009F0000
(1681172717.070060) can0 61A#0000000000000000
(1681172717.101765) can0 5F0#008E0963096303D6
(1681172717.114436) can0 5F1#00BD030982820101
(1681172717.114699) can0 5F2#03E80106046205B3
(1681172717.114941) can0 5F3#0000007D00A00000
(1681172717.152319) can0 5F0#008E0963096303D5
(1681172717.164994) can0 5F1#00BD030982820101
(1681172717.165259) can0 5F2#03E80103046205B5
(1681172717.165500) can0 5F3#0000007D00A00000
(1681172717.170205) can0 61A#0000000000000000
(1681172717.202622) can0 5F0#008E0955095503DC
(1681172717.215300) can0 5F1#00BC030982820101
(1681172717.215569) can0 5F2#03E80104046205B5
(1681172717.215774) can0 5F3#0000007D00A00000
(1681172717.252801) can0 5F0#008E0959095903E1
(1681172717.265477) can0 5F1#00BB030982820101
(1681172717.265732) can0 5F2#03E80103046205B6
(1681172717.265940) can0 5F3#0000007D00A00000
(1681172717.270316) can0 61A#0000000000000000
(1681172717.303231) can0 5F0#008E0955095503E5
(1681172717.315644) can0 5F1#00BA030982820101
(1681172717.315908) can0 5F2#03E80103046205B7
(1681172717.316149) can0 5F3#0000007D00A00000
(1681172717.353532) can0 5F0#008F0955095503E2
(1681172717.365830) can0 5F1#00BA030982820101
(1681172717.366061) can0 5F2#03E80103046205B7
(1681172717.366272) can0 5F3#0000007D009F0000
(1681172717.370537) can0 61A#0000000000000000
(1681172717.403987) can0 5F0#008F0955095503DD
(1681172717.416033) can0 5F1#00BB030982820101
(1681172717.416292) can0 5F2#03E80103046205B7
(1681172717.416526) can0 5F3#0000007D00A00000
(1681172717.454435) can0 5F0#008F0955095503E0
(1681172717.466338) can0 5F1#00BB030982820101
(1681172717.466594) can0 5F2#03E80103046205B7
(1681172717.466829) can0 5F3#0000007D009F0000
(1681172717.470780) can0 61A#0000000000000000
(1681172717.504447) can0 5F0#008F0955095503E0
(1681172717.516474) can0 5F1#00BB030982820101
(1681172717.516734) can0 5F2#03E80103046205B7
(1681172717.516980) can0 5F3#0000007D009D0000
(1681172717.554741) can0 5F0#008F0955095503E2
(1681172717.566652) can0 5F1#00BA030982820101
(1681172717.566917) can0 5F2#03E80103046205B7
(1681172717.567159) can0 5F3#0000007D009D0000
(1681172717.571114) can0 61A#0000000000000000
(1681172717.605749) can0 5F0#008F0955095503DD
(1681172717.616997) can0 5F1#00BA030982820101
(1681172717.617258) can0 5F2#03E80101046205B7
(1681172717.617493) can0 5F3#0000007D009E0000
(1681172717.656167) can0 5F0#008F0955095503D5
(1681172717.667165) can0 5F1#00BB030982820101
(1681172717.667429) can0 5F2#03E80101046205B7
(1681172717.667666) can0 5F3#0000007D009E0000
(1681172717.671366) can0 61A#0000000000000000
(1681172717.706302) can0 5F0#008F094B094B03D7
(1681172717.717308) can0 5F1#00BA030982820101
(1681172717.717576) can0 5F2#03E80101046205B7
(1681172717.717819) can0 5F3#0000007D009E0000
(1681172717.756743) can0 5F0#008F094B094B03DB
(1681172717.767738) can0 5F1#00BB030982820101
(1681172717.768000) can0 5F2#03E80101046205B7
(1681172717.768242) can0 5F3#0000007D009D0000
(1681172717.771804) can0 61A#0000000000000000
(1681172717.807174) can0 5F0#008F094B094B03DD
(1681172717.817916) can0 5F1#00BA030982820101
(1681172717.818180) can0 5F2#03E80101046205B7
(1681172717.818421) can0 5F3#0000007D009D0000
(1681172717.857357) can0 5F0#008F094B094B03DE
(1681172717.868090) can0 5F1#00BA030982820101
(1681172717.868349) can0 5F2#03E80101046205B7
(1681172717.868590) can0 5F3#0000007D009D0000
(1681172717.871896) can0 61A#0000000000000000
(1681172717.907690) can0 5F0#008F094B094B03DB
(1681172717.918816) can0 5F1#00BA030982820101
(1681172717.919070) can0 5F2#03E80101046205B7
(1681172717.919304) can0 5F3#0000007D009D0000
(1681172717.957861) can0 5F0#008F094B094B03DE
(1681172717.969114) can0 5F1#00BA030982820101
(1681172717.969375) can0 5F2#03E80101046205B7
(1681172717.969613) can0 5F3#0000007D009E0000
(1681172717.971891) can0 61A#0000000000000000
(1681172718.008270) can0 5F0#008F094B094B03DE
(1681172718.019374) can0 5F1#00BA030982820101
(1681172718.019631) can0 5F2#03E80101046205B7
(1681172718.019872) can0 5F3#0000007D009E0000
(1681172718.058562) can0 5F0#008F094B094B03E3
(1681172718.069559) can0 5F1#00B9030982820101
(1681172718.069803) can0 5F2#03E80101046205B7
(1681172718.070044) can0 5F3#0000007D009E0000
(1681172718.072222) can0 61A#0000000000000000
(1681172718.108789) can0 5F0#008F094B094B03E2
(1681172718.119761) can0 5F1#00B9030982820101
(1681172718.120009) can0 5F2#03E80101046205B7
(1681172718.120248) can0 5F3#0000007D009E0000
(1681172718.158950) can0 5F0#008F094B094B03E2
(1681172718.170158) can0 5F1#00B9030982820101
(1681172718.170435) can0 5F2#03E80101046205B7
(1681172718.170711) can0 5F3#0000007D009E0000
(1681172718.172491) can0 61A#0000000000000000
(1681172718.209080) can0 5F0#008F094B094B03DC
(1681172718.220556) can0 5F1#00BA030982820101
(1681172718.220799) can0 5F2#03E80101046205B7
(1681172718.221040) can0 5F3#0000007D009E0000
(1681172718.259253) can0 5F0#008F094B094B03D4
(1681172718.270730) can0 5F1#00BB030982820101
(1681172718.270972) can0 5F2#03E80101046205B7
(1681172718.271213) can0 5F3#0000007D009E0000
(1681172718.273064) can0 61A#0000000000000000
(1681172718.309599) can0 5F0#008F094B094B03D2
(1681172718.321072) can0 5F1#00BB030982820101
(1681172718.321354) can0 5F2#03E80101046205B7
(1681172718.321590) can0 5F3#0000007D009E0000
(1681172718.359775) can0 5F0#0090094B094B03D2
(1681172718.371627) can0 5F1#00BC030982820101
(1681172718.371907) can0 5F2#03E80101046205B7
(1681172718.372186) can0 5F3#0000007D009E0000
(1681172718.373323) can0 61A#0000000000000000
(1681172718.410176) can0 5F0#0090094B094B03CF
(1681172718.422182) can0 5F1#00BB030982820101
(1681172718.422435) can0 5F2#03E80101046205B7
(1681172718.422681) can0 5F3#0000007D009E0000
(1681172718.460348) can0 5F0#0090094B094B03D0
(1681172718.472476) can0 5F1#00BB030982820101
(1681172718.472730) can0 5F2#03E80101046205B7
(1681172718.472985) can0 5F3#0000007D009E0000
(1681172718.473777) can0 61A#0000000000000000
(1681172718.510651) can0 5F0#0090094B094B03C9
(1681172718.522926) can0 5F1#00BC030982820101
(1681172718.523192) can0 5F2#03E80104046205B7
(1681172718.523444) can0 5F3#0000007D009E0000
(1681172718.560959) can0 5F0#0090094B094B03CA
(1681172718.573254) can0 5F1#00BD030982820101
(1681172718.573506) can0 5F2#03E80104046205B9
(1681172718.573764) can0 5F3#0000007D009E0000
(1681172718.574026) can0 61A#0000000000000000
(1681172718.611129) can0 5F0#00900959095903CB
(1681172718.623564) can0 5F1#00BD030982820101
(1681172718.623811) can0 5F2#03E80104046205B9
(1681172718.624038) can0 5F3#0000007D009F0000
(1681172718.661430) can0 5F0#00900959095903CF
(1681172718.673768) can0 5F1#00BC030982820101
(1681172718.674013) can0 5F2#03E80104046205B9
(1681172718.674236) can0 5F3#0000007D009F0000
(1681172718.674496) can0 61A#0000000000000000
(1681172718.711609) can0 5F0#00900959095903CC
(1681172718.724040) can0 5F1#00BC030982820101
(1681172718.724282) can0 5F2#03E80104046205B9
(1681172718.724506) can0 5F3#0000007D009F0000
(1681172718.761659) can0 5F0#00900959095903C7
(1681172718.774234) can0 61A#0000000000000000
(1681172718.774477) can0 5F1#00BC030982820101
(1681172718.774700) can0 5F2#03E80104046205B9
(1681172718.774953) can0 5F3#0000007D00A00000
(1681172718.811957) can0 5F0#00900959095903C8
(1681172718.824658) can0 5F1#00BD030982820101
(1681172718.824898) can0 5F2#03E80104046205B9
(1681172718.825114) can0 5F3#0000007D009F0000
(1681172718.862136) can0 5F0#00900959095903C6
(1681172718.874578) can0 61A#0000000000000000
(1681172718.875045) can0 5F1#00BD030982820101
(1681172718.875308) can0 5F2#03E80104046205B9
(1681172718.875569) can0 5F3#0000007D00A00000
(1681172718.912316) can0 5F0#00900959095903C9
(1681172718.925240) can0 5F1#00BD030982820101
(1681172718.925559) can0 5F2#03E80106046205B9
(1681172718.925804) can0 5F3#0000007D009F0000
(1681172718.962487) can0 5F0#00900963096303CA
(1681172718.974788) can0 61A#0000000000000000
(1681172718.975370) can0 5F1#00BD030982820101
(1681172718.975614) can0 5F2#03E80106046205B9
(1681172718.975856) can0 5F3#0000007D009F0000
(1681172719.013046) can0 5F0#00900963096303CA
(1681172719.025991) can0 5F1#00BD030982820101
(1681172719.026217) can0 5F2#03E80106046205B9
(1681172719.026423) can0 5F3#0000007D009F0000
(1681172719.063223) can0 5F0#00900963096303C7
(1681172719.075143) can0 61A#0000000000000000
(1681172719.076623) can0 5F1#00BD030982820101
(1681172719.076865) can0 5F2#03E80106046205BA
(1681172719.077108) can0 5F3#0000007D009F0000
(1681172719.113532) can0 5F0#00900963096303C6
(1681172719.126842) can0 5F1#00BD030982820101
(1681172719.127109) can0 5F2#03E80106046205BB
(1681172719.127351) can0 5F3#0000007D009F0000
(1681172719.163704) can0 5F0#00900963096303CB
(1681172719.175375) can0 61A#0000000000000000
(1681172719.177256) can0 5F1#00BC030982820101
(1681172719.177564) can0 5F2#03E80106046205BB
(1681172719.177813) can0 5F3#0000007D009F0000
(1681172719.214009) can0 5F0#00900963096303CF
(1681172719.227706) can0 5F1#00BC030982820101
(1681172719.227972) can0 5F2#03E80106046205BB
(1681172719.228213) can0 5F3#0000007D009F0000
(1681172719.264057) can0 5F0#00900963096303CF
(1681172719.275344) can0 61A#0000000000000000
(1681172719.278103) can0 5F1#00BC030982820101
(1681172719.278347) can0 5F2#03E80106046205BB
(1681172719.278589) can0 5F3#0000007D00A00000
(1681172719.314355) can0 5F0#00910963096303CA
(1681172719.328568) can0 5F1#00BC030982820101
(1681172719.328832) can0 5F2#03E80106046205BB
(1681172719.329075) can0 5F3#0000007D00A00000
(1681172719.364657) can0 5F0#00910963096303C7
(1681172719.375810) can0 61A#0000000000000000
(1681172719.378706) can0 5F1#00BD030982820101
(1681172719.378949) can0 5F2#03E80106046205BB
(1681172719.379190) can0 5F3#0000007D00A00000
(1681172719.414833) can0 5F0#00910963096303CC
(1681172719.428920) can0 5F1#00BC030982820101
(1681172719.429182) can0 5F2#03E80106046205BB
(1681172719.429424) can0 5F3#0000007D00A00000
(1681172719.465011) can0 5F0#00910963096303CE
(1681172719.476163) can0 61A#0000000000000000
(1681172719.479213) can0 5F1#00BC030982820101
(1681172719.479496) can0 5F2#03E80106046205BB
(1681172719.479730) can0 5F3#0000007D00A00000
(1681172719.515347) can0 5F0#00910963096303D4
(1681172719.529306) can0 5F1#00BC030982820101
(1681172719.529567) can0 5F2#03E80106046205BB
(1681172719.529802) can0 5F3#0000007D00A00000
(1681172719.565397) can0 5F0#00910963096303D2
(1681172719.576420) can0 61A#0000000000000000
(1681172719.579402) can0 5F1#00BB030982820101
(1681172719.579646) can0 5F2#03E80106046205BB
(1681172719.579887) can0 5F3#0000007D00A10000
(1681172719.615548) can0 5F0#00910963096303CD
(1681172719.629625) can0 5F1#00BC030982820101
(1681172719.629891) can0 5F2#03E80106046205BB
(1681172719.630096) can0 5F3#0000007D00A10000
(1681172719.665967) can0 5F0#00910963096303D2
(1681172719.676607) can0 61A#0000000000000000
(1681172719.680010) can0 5F1#00BC030982820101
(1681172719.680252) can0 5F2#03E80106046205BB
(1681172719.680494) can0 5F3#0000007D00A10000
(1681172719.716146) can0 5F0#00910963096303D9
(1681172719.730364) can0 5F1#00BC030982820101
(1681172719.730632) can0 5F2#03E80106046205BB
(1681172719.730837) can0 5F3#0000007D00A10000
(1681172719.766332) can0 5F0#00910963096303D8
(1681172719.776963) can0 61A#0000000000000000
(1681172719.780619) can0 5F1#00BB030982820101
(1681172719.780863) can0 5F2#03E80106046205BB
(1681172719.781105) can0 5F3#0000007D00A10000
(1681172719.816629) can0 5F0#00910963096303D7
(1681172719.830838) can0 5F1#00BB030982820101
(1681172719.831104) can0 5F2#03E80106046205BB
(1681172719.831346) can0 5F3#0000007D00A10000
(1681172719.866804) can0 5F0#00910963096303D4
(1681172719.877186) can0 61A#0000000000000000
(1681172719.881227) can0 5F1#00BB030982820101
(1681172719.881470) can0 5F2#03E80106046205BB
(1681172719.881730) can0 5F3#0000007D00A10000
(1681172719.916985) can0 5F0#00910963096303D5
(1681172719.931582) can0 5F1#00BB030982820101
(1681172719.931811) can0 5F2#03E80106046205BB
(1681172719.932018) can0 5F3#0000007D00A00000
(1681172719.967414) can0 5F0#00910963096303D5
(1681172719.977283) can0 61A#0000000000000000
(1681172719.981837) can0 5F1#00BB030982820101
(1681172719.982081) can0 5F2#03E80106046205BB
(1681172719.982324) can0 5F3#0000007D00A00000
(1681172720.017745) can0 5F0#00910963096303DA
(1681172720.032185) can0 5F1#00BB030982820101
(1681172720.032447) can0 5F2#03E80106046205BB
(1681172720.032690) can0 5F3#0000007D00A00000
(1681172720.067899) can0 5F0#00910963096303D8
(1681172720.077396) can0 61A#0000000000000000
(1681172720.082478) can0 5F1#00BB030982820101
(1681172720.082760) can0 5F2#03E80103046205BB
(1681172720.082994) can0 5F3#0000007D00A00000
(1681172720.118099) can0 5F0#00910955095503D2
(1681172720.132822) can0 5F1#00BB030982820101
(1681172720.133079) can0 5F2#03E80104046205BB
(1681172720.133315) can0 5F3#0000007D009F0000
(1681172720.168276) can0 5F0#00910955095503D5
(1681172720.177657) can0 61A#0000000000000000
(1681172720.183053) can0 5F1#00BB030982820101
(1681172720.183297) can0 5F2#03E80103046205BB
(1681172720.183538) can0 5F3#0000007D009F0000
(1681172720.218416) can0 5F0#00910959095903D3
(1681172720.233551) can0 5F1#00BC030982820101
(1681172720.233781) can0 5F2#03E80103046205BB
(1681172720.233988) can0 5F3#0000007D009F0000
(1681172720.268595) can0 5F0#00910955095503DB
(1681172720.277754) can0 61A#0000000000000000
(1681172720.283786) can0 5F1#00BB030982820101
(1681172720.284029) can0 5F2#03E80104046205BB
(1681172720.284272) can0 5F3#0000007D009F0000
(1681172720.318774) can0 5F0#00920959095903DB
(1681172720.334003) can0 5F1#00BB030982820101
(1681172720.334266) can0 5F2#03E80103046205BB
(1681172720.334508) can0 5F3#0000007D009F0000
(1681172720.369075) can0 5F0#00920955095503DA
(1681172720.378174) can0 61A#0000000000000000
(1681172720.384137) can0 5F1#00BB030982820101
(1681172720.384380) can0 5F2#03E80103046205BB
(1681172720.384625) can0 5F3#0000007D009F0000
(1681172720.419504) can0 5F0#00920955095503DA
(1681172720.434487) can0 5F1#00BB030982820101
(1681172720.434750) can0 5F2#03E80103046205BB
(1681172720.434995) can0 5F3#0000007D009F0000
(1681172720.469713) can0 5F0#00920955095503D9
(1681172720.478299) can0 61A#0000000000000000
(1681172720.484648) can0 5F1#00BB030982820101
(1681172720.484926) can0 5F2#03E80103046205BB
(1681172720.485201) can0 5F3#0000007D009F0000
(1681172720.519889) can0 5F0#00920955095503D9
(1681172720.535127) can0 5F1#00BB030982820101
(1681172720.535385) can0 5F2#03E80103046205BB
(1681172720.535619) can0 5F3#0000007C009F0000
(1681172720.570322) can0 5F0#00920969096903DA
(1681172720.578658) can0 61A#0000000000000000
(1681172720.585506) can0 5F1#00BB030982820101
(1681172720.585815) can0 5F2#03E80103046205BB
(1681172720.586049) can0 5F3#0000007C009F0000
(1681172720.620626) can0 5F0#00920969096903DE
(1681172720.635740) can0 5F1#00BB030982820101
(1681172720.635997) can0 5F2#03E80103046205BB
(1681172720.636231) can0 5F3#0000007C009E0000
(1681172720.670933) can0 5F0#00920969096903DF
(1681172720.679025) can0 61A#0000000000000000
(1681172720.686212) can0 5F1#00BA030982820101
(1681172720.686455) can0 5F2#03E80103046205BB
(1681172720.686695) can0 5F3#0000007D00A00000
(1681172720.721330) can0 5F0#00920969096903DA
(1681172720.736440) can0 5F1#00BB030982820101
(1681172720.736704) can0 5F2#03E80103046205BB
(1681172720.736909) can0 5F3#0000007C009E0000
(1681172720.771500) can0 5F0#00920955095503D7
(1681172720.779342) can0 61A#0000000000000000
(1681172720.786854) can0 5F1#00BB030982820101
(1681172720.787131) can0 5F2#03E80103046205BB
(1681172720.787409) can0 5F3#0000007C009E0000
(1681172720.822099) can0 5F0#00920969096903D4
(1681172720.837590) can0 5F1#00BC030982820101
(1681172720.837846) can0 5F2#03E80103046205BB
(1681172720.838080) can0 5F3#0000007C009F0000
(1681172720.872276) can0 5F0#00920969096903D9
(1681172720.880094) can0 61A#0000000000000000
(1681172720.887810) can0 5F1#00BB030982820101
(1681172720.888051) can0 5F2#03E80103046205BB
(1681172720.888360) can0 5F3#0000007D009F0000
(1681172720.922684) can0 5F0#00920955095503DB
(1681172720.938170) can0 5F1#00BB030982820101
(1681172720.938437) can0 5F2#03E80103046205BD
(1681172720.938646) can0 5F3#0000007D00A00000
(1681172720.972986) can0 5F0#00920955095503E0
(1681172720.980413) can0 61A#0000000000000000
(1681172720.988682) can0 5F1#00BA030982820101
(1681172720.988933) can0 5F2#03E80103046205BD
(1681172720.989191) can0 5F3#0000007D00A00000
(1681172721.023426) can0 5F0#00920955095503DB
(1681172721.039028) can0 5F1#00BB030982820101
(1681172721.039296) can0 5F2#03E80103046205BE
(1681172721.039549) can0 5F3#0000007D009E0000
(1681172721.073593) can0 5F0#00920955095503D9
(1681172721.080521) can0 61A#0000000000000000
(1681172721.089178) can0 5F1#00BB030982820101
(1681172721.089443) can0 5F2#03E80103046205BF
(1681172721.089710) can0 5F3#0000007D009F0000
(1681172721.123782) can0 5F0#00920955095503DA
(1681172721.139395) can0 5F1#00BB030982820101
(1681172721.139634) can0 5F2#03E80103046205BF
(1681172721.139861) can0 5F3#0000007D00A30000
(1681172721.173959) can0 5F0#00920955095503DF
(1681172721.180609) can0 61A#0000000000000000
(1681172721.189913) can0 5F1#00BB030982820101
(1681172721.190174) can0 5F2#03E80103046205BF
(1681172721.190426) can0 5F3#0000007D00A00000
(1681172721.224522) can0 5F0#00920955095503DC
(1681172721.240122) can0 5F1#00BB030982820101
(1681172721.240402) can0 5F2#03E80103046205BF
(1681172721.240626) can0 5F3#0000007D009F0000
(1681172721.274684) can0 5F0#00920955095503DE
(1681172721.280796) can0 61A#0000000000000000
(1681172721.290562) can0 5F1#00BA030982820101
(1681172721.290815) can0 5F2#03E80103046205BF
(1681172721.291033) can0 5F3#0000007D009F0000
(1681172721.324976) can0 5F0#00930955095503D7
(1681172721.340736) can0 5F1#00BB030982820101
(1681172721.340981) can0 5F2#03E80103046205BF
(1681172721.341202) can0 5F3#0000007D009E0000
(1681172721.375156) can0 5F0#00930955095503D5
(1681172721.380892) can0 61A#0000000000000000
(1681172721.391170) can0 5F1#00BB030982820101
(1681172721.391400) can0 5F2#03E80103046205BF
(1681172721.391605) can0 5F3#0000007D009E0000
(1681172721.425335) can0 5F0#00930955095503D5
(1681172721.441339) can0 5F1#00BC030982820101
(1681172721.441578) can0 5F2#03E80103046205BF
(1681172721.441799) can0 5F3#0000007D009E0000
(1681172721.475758) can0 5F0#00930955095503D7
(1681172721.480974) can0 61A#0000000000000000
(1681172721.491638) can0 5F1#00BB030982820101
(1681172721.491904) can0 5F2#03E80103046205BF
(1681172721.492113) can0 5F3#0000007D009E0000
(1681172721.526062) can0 5F0#00930955095503D6
(1681172721.541940) can0 5F1#00BB030982820101
(1681172721.542204) can0 5F2#03E80103046205BF
(1681172721.542446) can0 5F3#0000007D009D0000
(1681172721.576239) can0 5F0#00930955095503D1
(1681172721.581343) can0 61A#0000000000000000
(1681172721.592108) can0 5F1#00BB030982820101
(1681172721.592370) can0 5F2#03E80103046205BF
(1681172721.592608) can0 5F3#0000007D009E0000
(1681172721.626543) can0 5F0#00930955095503D2
(1681172721.642419) can0 5F1#00BB030982820101
(1681172721.642682) can0 5F2#03E80103046205BF
(1681172721.642924) can0 5F3#0000007D009E0000
(1681172721.676977) can0 5F0#00930955095503CC
(1681172721.681437) can0 61A#0000000000000000
(1681172721.692631) can0 5F1#00BC030982820101
(1681172721.692888) can0 5F2#03E80103046205BF
(1681172721.693123) can0 5F3#0000007D009E0000
(1681172721.727182) can0 5F0#00930955095503D0
(1681172721.743188) can0 5F1#00BC030982820101
(1681172721.743449) can0 5F2#03E80104046205BF
(1681172721.743683) can0 5F3#0000007D009E0000
(1681172721.777625) can0 5F0#00930959095903CC
(1681172721.781566) can0 61A#0000000000000000
(1681172721.793236) can0 5F1#00BC030982820101
(1681172721.793495) can0 5F2#03E80104046205BF
(1681172721.793764) can0 5F3#0000007D009E0000
(1681172721.828178) can0 5F0#00930959095903C5
(1681172721.843410) can0 5F1#00BD030982820101
(1681172721.843666) can0 5F2#03E80104046205BF
(1681172721.843902) can0 5F3#0000007D009E0000
(1681172721.878367) can0 5F0#00930959095903C0
(1681172721.881789) can0 61A#0000000000000000
(1681172721.893749) can0 5F1#00BD030982820101
(1681172721.894005) can0 5F2#03E80104046205BF
(1681172721.894244) can0 5F3#0000007D009E0000
(1681172721.928784) can0 5F0#00930959095903B9
(1681172721.944152) can0 5F1#00BE030982820101
(1681172721.944409) can0 5F2#03E80104046205C1
(1681172721.944645) can0 5F3#0000007D009E0000
(1681172721.978957) can0 5F0#00930959095903BA
(1681172721.982141) can0 61A#0000000000000000
(1681172721.994457) can0 5F1#00BE030982820101
(1681172721.994715) can0 5F2#03E80106046205C1
(1681172721.994951) can0 5F3#0000007D009E0000
(1681172722.029561) can0 5F0#00930963096303B6
(1681172722.044889) can0 5F1#00BE030982820101
(1681172722.045149) can0 5F2#03E80106046205C2
(1681172722.045384) can0 5F3#0000007D009E0000
(1681172722.079696) can0 5F0#00930963096303B1
(1681172722.082492) can0 61A#0000000000000000
(1681172722.095061) can0 5F1#00C0030982820101
(1681172722.095318) can0 5F2#03E80109046205C3
(1681172722.095553) can0 5F3#0000007D009E0000
(1681172722.130261) can0 5F0#00930963096303AF
(1681172722.145496) can0 5F1#00C0030982820101
(1681172722.145786) can0 5F2#03E80109046205C3
(1681172722.146022) can0 5F3#0000007D009F0000
(1681172722.180560) can0 5F0#00930972097203A9
(1681172722.182844) can0 61A#0000000000000000
(1681172722.195765) can0 5F1#00C0030982820101
(1681172722.195991) can0 5F2#03E80109046205C3
(1681172722.196200) can0 5F3#0000007D009F0000
(1681172722.230964) can0 5F0#00930972097203AE
(1681172722.245935) can0 5F1#00C0030982820101
(1681172722.246200) can0 5F2#03E8010B046205C3
(1681172722.246443) can0 5F3#0000007D009E0000
(1681172722.281554) can0 5F0#0093097B097B03AD
(1681172722.283163) can0 61A#0000000000000000
(1681172722.296242) can0 5F1#00C0030982820101
(1681172722.296506) can0 5F2#03E8010B046205C3
(1681172722.296749) can0 5F3#0000007D009E0000
(1681172722.331695) can0 5F0#0094097B097B03A7
(1681172722.346545) can0 5F1#00C0030982820101
(1681172722.346809) can0 5F2#03E8010B046205C3
(1681172722.347051) can0 5F3#0000007D009E0000
(1681172722.382128) can0 5F0#0094097B097B03A8
(1681172722.383769) can0 61A#0000000000000000
(1681172722.396723) can0 5F1#00C2030982820101
